Sample in Buffer	Sample in Window	trig0/data0[0]	trig0/data0[1]	trig0/data0[2]	trig0/data0[3]	trig0/data0[4]	trig0/data0[5]	trig0/data0[6]	trig0/data0[7]	trig0/data0[8]	trig0/data0[9]	trig0/data0[10]	trig0/data0[11]	trig1/data1[0]	trig2/data2[0]	trig2/data2[1]	trig2/data2[2]	trig2/data2[3]	trig2/data2[4]	trig2/data2[5]	trig2/data2[6]	trig2/data2[7]	trig2/data2[8]	trig2/data2[9]	trig2/data2[10]	trig2/data2[11]	trig3/data3[0]	trig3/data3[1]	trig3/data3[2]	trig3/data3[3]	trig3/data3[4]	trig3/data3[5]	trig3/data3[6]	trig3/data3[7]	trig3/data3[8]	trig3/data3[9]	trig3/data3[10]	trig3/data3[11]	rxd	rx_i	rx_q
0	0	1	0	1	1	1	1	1	1	1	1	1	1	1	0	0	0	1	1	0	1	1	1	1	1	1	1	1	0	0	0	0	1	1	1	1	1	1	-3	-61	-40	
1	1	0	1	0	1	0	1	0	1	1	1	1	1	0	0	0	0	1	1	0	1	1	1	1	1	1	1	1	0	0	0	0	1	1	1	1	1	1	-86	-61	-40	
2	2	0	1	0	0	1	0	0	0	0	0	0	0	1	1	0	1	0	0	1	1	1	1	1	1	1	1	1	0	0	1	1	0	1	1	1	1	1	18	-77	-27	
3	3	1	1	0	0	0	1	0	1	1	1	1	1	0	1	0	1	0	0	1	1	1	1	1	1	1	1	1	0	0	1	1	0	1	1	1	1	1	-93	-77	-27	
4	4	1	0	1	1	0	1	0	0	0	0	0	0	1	1	0	1	1	1	1	1	1	1	1	1	1	0	1	0	1	0	1	0	1	1	1	1	1	45	-86	-3	
5	5	1	1	0	1	0	1	0	1	1	1	1	1	0	1	0	1	1	1	1	1	1	1	1	1	1	0	1	0	1	0	1	0	1	1	1	1	1	-85	-86	-3	
6	6	0	1	1	0	0	0	1	0	0	0	0	0	1	0	1	0	0	1	0	0	0	0	0	0	0	1	1	0	0	0	1	0	1	1	1	1	1	70	-93	18	
7	7	1	1	0	0	1	1	0	1	1	1	1	1	0	0	1	0	0	1	0	0	0	0	0	0	0	1	1	0	0	0	1	0	1	1	1	1	1	-77	-93	18	
8	8	1	0	0	1	1	0	1	0	0	0	0	0	1	1	0	1	1	0	1	0	0	0	0	0	0	1	1	0	1	0	1	0	1	1	1	1	1	89	-85	45	
9	9	0	1	1	0	0	0	1	1	1	1	1	1	0	1	0	1	1	0	1	0	0	0	0	0	0	1	1	0	1	0	1	0	1	1	1	1	1	-58	-85	45	
10	10	0	1	0	1	0	1	1	0	0	0	0	0	1	0	1	1	0	0	0	1	0	0	0	0	0	1	1	0	0	1	1	0	1	1	1	1	1	106	-77	70	
11	11	0	1	1	1	1	0	1	1	1	1	1	1	0	0	1	1	0	0	0	1	0	0	0	0	0	1	1	0	0	1	1	0	1	1	1	1	1	-34	-77	70	
12	12	1	0	0	0	1	1	1	0	0	0	0	0	1	1	0	0	1	1	0	1	0	0	0	0	0	0	1	1	0	0	0	1	1	1	1	1	1	113	-58	89	
13	13	1	0	1	0	1	1	1	1	1	1	1	1	0	1	0	0	1	1	0	1	0	0	0	0	0	0	1	1	0	0	0	1	1	1	1	1	1	-11	-58	89	
14	14	1	1	1	1	0	1	1	0	0	0	0	0	1	0	1	0	1	0	1	1	0	0	0	0	0	0	1	1	1	1	0	1	1	1	1	1	1	111	-34	106	
15	15	0	1	1	1	0	0	0	0	0	0	0	0	0	0	1	0	1	0	1	1	0	0	0	0	0	0	1	1	1	1	0	1	1	1	1	1	1	14	-34	106	
16	16	1	0	1	0	0	1	1	0	0	0	0	0	1	1	0	0	0	1	1	1	0	0	0	0	0	1	0	1	0	1	1	1	1	1	1	1	1	101	-11	113	
17	17	1	0	0	1	0	1	0	0	0	0	0	0	0	1	0	0	0	1	1	1	0	0	0	0	0	1	0	1	0	1	1	1	1	1	1	1	1	41	-11	113	
18	18	0	0	1	0	1	0	1	0	0	0	0	0	1	1	1	1	1	0	1	1	0	0	0	0	0	0	1	1	1	0	0	0	0	0	0	0	0	84	14	111	
19	19	0	1	0	1	1	1	0	0	0	0	0	0	0	1	1	1	1	0	1	1	0	0	0	0	0	0	1	1	1	0	0	0	0	0	0	0	0	58	14	111	
20	20	1	0	1	1	1	1	0	0	0	0	0	0	1	1	0	1	0	0	1	1	0	0	0	0	0	1	0	0	1	0	1	0	0	0	0	0	0	61	41	101	
21	21	0	1	1	0	0	0	1	0	0	0	0	0	0	1	0	1	0	0	1	1	0	0	0	0	0	1	0	0	1	0	1	0	0	0	0	0	0	70	41	101	
22	22	1	1	0	0	0	1	0	0	0	0	0	0	1	0	0	1	0	1	0	1	0	0	0	0	0	0	1	0	1	1	1	0	0	0	0	0	0	35	58	84	
23	23	1	0	0	1	0	0	1	0	0	0	0	0	0	0	0	1	0	1	0	1	0	0	0	0	0	0	1	0	1	1	1	0	0	0	0	0	0	73	58	84	
24	24	0	1	0	1	0	0	0	0	0	0	0	0	1	1	0	1	1	1	1	0	0	0	0	0	0	0	1	1	0	0	0	1	0	0	0	0	0	10	70	61	
25	25	1	0	1	0	0	0	1	0	0	0	0	0	0	1	0	1	1	1	1	0	0	0	0	0	0	0	1	1	0	0	0	1	0	0	0	0	0	69	70	61	
26	26	1	0	1	0	1	1	1	1	1	1	1	1	1	1	1	0	0	0	1	0	0	0	0	0	0	1	0	0	1	0	0	1	0	0	0	0	0	-11	73	35	
27	27	1	1	1	0	1	1	0	0	0	0	0	0	0	1	1	0	0	0	1	0	0	0	0	0	0	1	0	0	1	0	0	1	0	0	0	0	0	55	73	35	
28	28	0	0	0	0	0	1	1	1	1	1	1	1	1	0	1	0	1	0	0	0	0	0	0	0	0	1	0	1	0	0	0	1	0	0	0	0	0	-32	69	10	
29	29	0	0	0	1	0	1	0	0	0	0	0	0	0	0	1	0	1	0	0	0	0	0	0	0	0	1	0	1	0	0	0	1	0	0	0	0	0	40	69	10	
30	30	0	1	0	0	1	0	1	1	1	1	1	1	1	1	0	1	0	1	1	1	1	1	1	1	1	1	1	1	0	1	1	0	0	0	0	0	0	-46	55	-11	
31	31	0	1	1	1	0	0	0	0	0	0	0	0	0	1	0	1	0	1	1	1	1	1	1	1	1	1	1	1	0	1	1	0	0	0	0	0	0	14	55	-11	
32	32	0	1	1	1	0	0	1	1	1	1	1	1	1	0	0	0	0	0	1	1	1	1	1	1	1	0	0	0	1	0	1	0	0	0	0	0	0	-50	40	-32	
33	33	0	0	1	0	1	1	1	1	1	1	1	1	0	0	0	0	0	0	1	1	1	1	1	1	1	0	0	0	1	0	1	0	0	0	0	0	0	-12	40	-32	
34	34	1	0	1	1	0	0	1	1	1	1	1	1	1	0	1	0	0	1	0	1	1	1	1	1	1	0	1	1	1	0	0	0	0	0	0	0	0	-51	14	-46	
35	35	0	1	0	1	1	0	1	1	1	1	1	1	0	0	1	0	0	1	0	1	1	1	1	1	1	0	1	1	1	0	0	0	0	0	0	0	0	-38	14	-46	
36	36	1	0	1	0	1	0	1	1	1	1	1	1	1	0	1	1	1	0	0	1	1	1	1	1	1	0	0	1	0	1	1	1	1	1	1	1	1	-43	-12	-50	
37	37	1	1	1	0	0	0	1	1	1	1	1	1	0	0	1	1	1	0	0	1	1	1	1	1	1	0	0	1	0	1	1	1	1	1	1	1	1	-57	-12	-50	
38	38	1	1	0	0	0	1	1	1	1	1	1	1	1	1	0	1	1	0	0	1	1	1	1	1	1	0	1	0	1	1	0	1	1	1	1	1	1	-29	-38	-51	
39	39	0	0	1	0	1	1	0	1	1	1	1	1	0	1	0	1	1	0	0	1	1	1	1	1	1	0	1	0	1	1	0	1	1	1	1	1	1	-76	-38	-51	
40	40	1	0	1	0	1	1	1	1	1	1	1	1	1	1	0	1	0	1	0	1	1	1	1	1	1	1	1	1	0	0	0	1	1	1	1	1	1	-11	-57	-43	
41	41	0	1	0	1	0	1	0	1	1	1	1	1	0	1	0	1	0	1	0	1	1	1	1	1	1	1	1	1	0	0	0	1	1	1	1	1	1	-86	-57	-43	
42	42	1	0	0	0	1	0	0	0	0	0	0	0	1	1	1	0	0	0	1	1	1	1	1	1	1	0	0	1	0	1	1	0	1	1	1	1	1	17	-76	-29	
43	43	1	0	1	0	0	1	0	1	1	1	1	1	0	1	1	0	0	0	1	1	1	1	1	1	1	0	0	1	0	1	1	0	1	1	1	1	1	-91	-76	-29	
44	44	1	0	1	1	0	1	0	0	0	0	0	0	1	1	0	1	0	1	1	1	1	1	1	1	1	0	1	0	1	0	1	0	1	1	1	1	1	45	-86	-11	
45	45	0	1	0	1	0	1	0	1	1	1	1	1	0	1	0	1	0	1	1	1	1	1	1	1	1	0	1	0	1	0	1	0	1	1	1	1	1	-86	-86	-11	
46	46	1	0	0	0	0	0	1	0	0	0	0	0	1	1	0	0	0	1	0	0	0	0	0	0	0	1	0	1	0	0	1	0	1	1	1	1	1	65	-91	17	
47	47	0	0	1	0	1	1	0	1	1	1	1	1	0	1	0	0	0	1	0	0	0	0	0	0	0	1	0	1	0	0	1	0	1	1	1	1	1	-76	-91	17	
48	48	1	1	1	0	1	0	1	0	0	0	0	0	1	1	0	1	1	0	1	0	0	0	0	0	0	0	1	0	1	0	1	0	1	1	1	1	1	87	-86	45	
49	49	1	0	0	0	0	0	1	1	1	1	1	1	0	1	0	1	1	0	1	0	0	0	0	0	0	0	1	0	1	0	1	0	1	1	1	1	1	-63	-86	45	
50	50	0	1	0	1	0	1	1	0	0	0	0	0	1	1	0	0	0	0	0	1	0	0	0	0	0	0	0	1	0	1	1	0	1	1	1	1	1	106	-76	65	
51	51	1	0	0	1	1	0	1	1	1	1	1	1	0	1	0	0	0	0	0	1	0	0	0	0	0	0	0	1	0	1	1	0	1	1	1	1	1	-39	-76	65	
52	52	1	1	1	1	0	1	1	0	0	0	0	0	1	1	1	1	0	1	0	1	0	0	0	0	0	1	0	0	0	0	0	1	1	1	1	1	1	111	-63	87	
53	53	0	1	0	0	1	1	1	1	1	1	1	1	0	1	1	1	0	1	0	1	0	0	0	0	0	1	0	0	0	0	0	1	1	1	1	1	1	-14	-63	87	
54	54	0	0	0	0	1	1	1	0	0	0	0	0	1	0	1	0	1	0	1	1	0	0	0	0	0	1	0	0	1	1	0	1	1	1	1	1	1	112	-39	106	
55	55	0	1	1	1	0	0	0	0	0	0	0	0	0	0	1	0	1	0	1	1	0	0	0	0	0	1	0	0	1	1	0	1	1	1	1	1	1	14	-39	106	
56	56	0	0	0	1	0	1	1	0	0	0	0	0	1	1	1	1	1	0	1	1	0	0	0	0	0	0	1	0	0	1	1	1	1	1	1	1	1	104	-14	111	
57	57	1	1	0	0	0	1	0	0	0	0	0	0	0	1	1	1	1	0	1	1	0	0	0	0	0	0	1	0	0	1	1	1	1	1	1	1	1	35	-14	111	
58	58	0	0	0	1	1	0	1	0	0	0	0	0	1	0	0	0	0	1	1	1	0	0	0	0	0	0	1	1	1	0	0	0	0	0	0	0	0	88	14	112	
59	59	1	1	1	0	1	1	0	0	0	0	0	0	0	0	0	0	0	1	1	1	0	0	0	0	0	0	1	1	1	0	0	0	0	0	0	0	0	55	14	112	
60	60	0	0	1	0	0	0	1	0	0	0	0	0	1	0	0	0	1	0	1	1	0	0	0	0	0	1	1	0	0	0	1	0	0	0	0	0	0	68	35	104	
61	61	1	0	1	0	0	0	1	0	0	0	0	0	0	0	0	0	1	0	1	1	0	0	0	0	0	1	1	0	0	0	1	0	0	0	0	0	0	69	35	104	
62	62	1	1	1	0	0	1	0	0	0	0	0	0	1	0	0	0	1	1	0	1	0	0	0	0	0	1	1	1	0	1	1	0	0	0	0	0	0	39	55	88	
63	63	1	0	0	1	0	0	1	0	0	0	0	0	0	0	0	0	1	1	0	1	0	0	0	0	0	1	1	1	0	1	1	0	0	0	0	0	0	73	55	88	
64	64	1	0	1	1	0	0	0	0	0	0	0	0	1	0	0	1	0	0	0	1	0	0	0	0	0	1	0	1	0	0	0	1	0	0	0	0	0	13	69	68	
65	65	0	1	0	0	0	0	1	0	0	0	0	0	0	0	0	1	0	0	0	1	0	0	0	0	0	1	0	1	0	0	0	1	0	0	0	0	0	66	69	68	
66	66	0	1	1	0	1	1	1	1	1	1	1	1	1	1	1	1	0	0	1	0	0	0	0	0	0	1	0	0	1	0	0	1	0	0	0	0	0	-10	73	39	
67	67	0	1	0	1	1	1	0	0	0	0	0	0	0	1	1	1	0	0	1	0	0	0	0	0	0	1	0	0	1	0	0	1	0	0	0	0	0	58	73	39	
68	68	1	1	0	0	0	1	1	1	1	1	1	1	1	1	0	1	1	0	0	0	0	0	0	0	0	0	1	0	0	0	0	1	0	0	0	0	0	-29	66	13	
69	69	0	0	0	1	0	1	0	0	0	0	0	0	0	1	0	1	1	0	0	0	0	0	0	0	0	0	1	0	0	0	0	1	0	0	0	0	0	40	66	13	
70	70	1	0	1	0	1	0	1	1	1	1	1	1	1	0	1	1	0	1	1	1	1	1	1	1	1	0	1	0	1	1	1	0	0	0	0	0	0	-43	58	-10	
71	71	1	1	0	0	1	0	0	0	0	0	0	0	0	0	1	1	0	1	1	1	1	1	1	1	1	0	1	0	1	1	1	0	0	0	0	0	0	19	58	-10	
72	72	0	0	1	1	0	0	1	1	1	1	1	1	1	1	1	0	0	0	1	1	1	1	1	1	1	0	0	0	1	0	1	0	0	0	0	0	0	-52	40	-29	
73	73	0	1	1	0	1	1	1	1	1	1	1	1	0	1	1	0	0	0	1	1	1	1	1	1	1	0	0	0	1	0	1	0	0	0	0	0	0	-10	40	-29	
74	74	0	0	1	1	0	0	1	1	1	1	1	1	1	1	0	1	0	1	0	1	1	1	1	1	1	1	1	0	0	1	0	0	0	0	0	0	0	-52	19	-43	
75	75	1	1	1	1	1	0	1	1	1	1	1	1	0	1	0	1	0	1	0	1	1	1	1	1	1	1	1	0	0	1	0	0	0	0	0	0	0	-33	19	-43	
76	76	1	1	0	0	1	0	1	1	1	1	1	1	1	0	0	1	1	0	0	1	1	1	1	1	1	0	1	1	0	1	1	1	1	1	1	1	1	-45	-10	-52	
77	77	0	0	0	1	0	0	1	1	1	1	1	1	0	0	0	1	1	0	0	1	1	1	1	1	1	0	1	1	0	1	1	1	1	1	1	1	1	-56	-10	-52	
78	78	0	0	1	0	0	1	1	1	1	1	1	1	1	0	0	1	1	0	0	1	1	1	1	1	1	1	1	1	1	1	0	1	1	1	1	1	1	-28	-33	-52	
79	79	0	0	0	1	1	1	0	1	1	1	1	1	0	0	0	1	1	0	0	1	1	1	1	1	1	1	1	1	1	1	0	1	1	1	1	1	1	-72	-33	-52	
80	80	1	0	1	0	1	1	1	1	1	1	1	1	1	1	1	0	0	1	0	1	1	1	1	1	1	0	0	0	1	0	0	1	1	1	1	1	1	-11	-56	-45	
81	81	1	0	0	1	0	1	0	1	1	1	1	1	0	1	1	0	0	1	0	1	1	1	1	1	1	0	0	0	1	0	0	1	1	1	1	1	1	-87	-56	-45	
82	82	0	0	1	1	0	0	0	0	0	0	0	0	1	0	0	1	0	0	1	1	1	1	1	1	1	0	0	0	1	1	1	0	1	1	1	1	1	12	-72	-28	
83	83	0	1	1	0	0	1	0	1	1	1	1	1	0	0	0	1	0	0	1	1	1	1	1	1	1	0	0	0	1	1	1	0	1	1	1	1	1	-90	-72	-28	
84	84	0	1	1	0	0	1	0	0	0	0	0	0	1	1	0	1	0	1	1	1	1	1	1	1	1	1	0	0	1	0	1	0	1	1	1	1	1	38	-87	-11	
85	85	1	1	1	0	0	1	0	1	1	1	1	1	0	1	0	1	0	1	1	1	1	1	1	1	1	1	0	0	1	0	1	0	1	1	1	1	1	-89	-87	-11	
86	86	0	1	1	1	1	1	0	0	0	0	0	0	1	0	0	1	1	0	0	0	0	0	0	0	0	0	1	1	0	0	1	0	1	1	1	1	1	62	-90	12	
87	87	0	1	0	0	1	1	0	1	1	1	1	1	0	0	0	1	1	0	0	0	0	0	0	0	0	0	1	1	0	0	1	0	1	1	1	1	1	-78	-90	12	
88	88	0	0	0	1	1	0	1	0	0	0	0	0	1	0	1	1	0	0	1	0	0	0	0	0	0	1	1	1	0	0	1	0	1	1	1	1	1	88	-89	38	
89	89	1	0	0	0	0	0	1	1	1	1	1	1	0	0	1	1	0	0	1	0	0	0	0	0	0	1	1	1	0	0	1	0	1	1	1	1	1	-63	-89	38	
90	90	1	1	1	0	0	1	1	0	0	0	0	0	1	0	1	1	1	1	1	0	0	0	0	0	0	0	1	0	0	1	1	0	1	1	1	1	1	103	-78	62	
91	91	1	1	1	0	1	0	1	1	1	1	1	1	0	0	1	1	1	1	1	0	0	0	0	0	0	0	1	0	0	1	1	0	1	1	1	1	1	-41	-78	62	
92	92	1	1	1	1	0	1	1	0	0	0	0	0	1	0	0	0	1	1	0	1	0	0	0	0	0	1	0	0	0	0	0	1	1	1	1	1	1	111	-63	88	
93	93	1	1	0	1	0	1	1	1	1	1	1	1	0	0	0	0	1	1	0	1	0	0	0	0	0	1	0	0	0	0	0	1	1	1	1	1	1	-21	-63	88	
94	94	1	1	1	1	0	1	1	0	0	0	0	0	1	1	1	1	0	0	1	1	0	0	0	0	0	1	1	1	0	1	0	1	1	1	1	1	1	111	-41	103	
95	95	0	0	1	1	0	0	0	0	0	0	0	0	0	1	1	1	0	0	1	1	0	0	0	0	0	1	1	1	0	1	0	1	1	1	1	1	1	12	-41	103	
96	96	1	1	0	1	0	1	1	0	0	0	0	0	1	1	1	1	1	0	1	1	0	0	0	0	0	1	1	0	1	0	1	1	1	1	1	1	1	107	-21	111	
97	97	1	0	0	0	0	1	0	0	0	0	0	0	0	1	1	1	1	0	1	1	0	0	0	0	0	1	1	0	1	0	1	1	1	1	1	1	1	33	-21	111	
98	98	0	1	0	1	1	0	1	0	0	0	0	0	1	1	1	1	1	0	1	1	0	0	0	0	0	0	0	1	1	0	0	0	0	0	0	0	0	90	12	111	
99	99	0	0	0	1	1	1	0	0	0	0	0	0	0	1	1	1	1	0	1	1	0	0	0	0	0	0	0	1	1	0	0	0	0	0	0	0	0	56	12	111	
100	100	0	0	1	0	0	0	1	0	0	0	0	0	1	1	1	0	1	0	1	1	0	0	0	0	0	1	0	0	0	0	1	0	0	0	0	0	0	68	33	107	
101	101	0	0	1	0	0	0	1	0	0	0	0	0	0	1	1	0	1	0	1	1	0	0	0	0	0	1	0	0	0	0	1	0	0	0	0	0	0	68	33	107	
102	102	1	0	0	1	0	1	0	0	0	0	0	0	1	0	1	0	1	1	0	1	0	0	0	0	0	0	0	0	1	1	1	0	0	0	0	0	0	41	56	90	
103	103	0	0	0	1	0	0	1	0	0	0	0	0	0	0	1	0	1	1	0	1	0	0	0	0	0	0	0	0	1	1	1	0	0	0	0	0	0	72	56	90	
104	104	0	0	1	0	1	0	0	0	0	0	0	0	1	0	0	1	0	0	0	1	0	0	0	0	0	0	0	1	0	0	0	1	0	0	0	0	0	20	68	68	
105	105	1	1	1	0	0	0	1	0	0	0	0	0	0	0	0	1	0	0	0	1	0	0	0	0	0	0	0	1	0	0	0	1	0	0	0	0	0	71	68	68	
106	106	1	1	1	0	1	1	1	1	1	1	1	1	1	1	0	0	1	0	1	0	0	0	0	0	0	0	0	0	1	0	0	1	0	0	0	0	0	-9	72	41	
107	107	1	1	0	1	1	1	0	0	0	0	0	0	0	1	0	0	1	0	1	0	0	0	0	0	0	0	0	0	1	0	0	1	0	0	0	0	0	59	72	41	
108	108	0	1	0	0	0	1	1	1	1	1	1	1	1	0	0	1	0	1	0	0	0	0	0	0	0	1	1	1	0	0	0	1	0	0	0	0	0	-30	71	20	
109	109	0	0	0	1	0	1	0	0	0	0	0	0	0	0	0	1	0	1	0	0	0	0	0	0	0	1	1	1	0	0	0	1	0	0	0	0	0	40	71	20	
110	110	1	0	1	0	1	0	1	1	1	1	1	1	1	1	1	1	0	1	1	1	1	1	1	1	1	1	1	0	1	1	1	0	0	0	0	0	0	-43	59	-9	
111	111	1	1	0	0	1	0	0	0	0	0	0	0	0	1	1	1	0	1	1	1	1	1	1	1	1	1	1	0	1	1	1	0	0	0	0	0	0	19	59	-9	
112	112	0	1	1	1	0	0	1	1	1	1	1	1	1	0	1	0	0	0	1	1	1	1	1	1	1	0	0	0	1	0	1	0	0	0	0	0	0	-50	40	-30	
113	113	0	1	1	0	1	1	1	1	1	1	1	1	0	0	1	0	0	0	1	1	1	1	1	1	1	0	0	0	1	0	1	0	0	0	0	0	0	-10	40	-30	
114	114	1	0	1	1	0	0	1	1	1	1	1	1	1	1	0	1	0	1	0	1	1	1	1	1	1	1	1	0	0	1	0	0	0	0	0	0	0	-51	19	-43	
115	115	0	0	1	1	1	0	1	1	1	1	1	1	0	1	0	1	0	1	0	1	1	1	1	1	1	1	1	0	0	1	0	0	0	0	0	0	0	-36	19	-43	
116	116	1	1	0	0	1	0	1	1	1	1	1	1	1	0	1	1	1	0	0	1	1	1	1	1	1	0	1	1	0	1	1	1	1	1	1	1	1	-45	-10	-50	
117	117	0	0	0	1	0	0	1	1	1	1	1	1	0	0	1	1	1	0	0	1	1	1	1	1	1	0	1	1	0	1	1	1	1	1	1	1	1	-56	-10	-50	
118	118	0	1	0	0	0	1	1	1	1	1	1	1	1	1	0	1	1	0	0	1	1	1	1	1	1	0	0	1	1	1	0	1	1	1	1	1	1	-30	-36	-51	
119	119	0	1	1	0	1	1	0	1	1	1	1	1	0	1	0	1	1	0	0	1	1	1	1	1	1	0	0	1	1	1	0	1	1	1	1	1	1	-74	-36	-51	
120	120	1	0	1	0	1	1	1	1	1	1	1	1	1	1	1	0	0	1	0	1	1	1	1	1	1	0	0	0	1	0	0	1	1	1	1	1	1	-11	-56	-45	
121	121	0	0	0	1	0	1	0	1	1	1	1	1	0	1	1	0	0	1	0	1	1	1	1	1	1	0	0	0	1	0	0	1	1	1	1	1	1	-88	-56	-45	
122	122	1	1	1	1	0	0	0	0	0	0	0	0	1	0	1	0	0	0	1	1	1	1	1	1	1	0	1	1	0	1	1	0	1	1	1	1	1	15	-74	-30	
123	123	1	0	1	0	0	1	0	1	1	1	1	1	0	0	1	0	0	0	1	1	1	1	1	1	1	0	1	1	0	1	1	0	1	1	1	1	1	-91	-74	-30	
124	124	1	0	0	1	0	1	0	0	0	0	0	0	1	1	0	1	0	1	1	1	1	1	1	1	1	0	0	0	1	0	1	0	1	1	1	1	1	41	-88	-11	
125	125	0	0	0	1	0	1	0	1	1	1	1	1	0	1	0	1	0	1	1	1	1	1	1	1	1	0	0	0	1	0	1	0	1	1	1	1	1	-88	-88	-11	
126	126	1	1	0	0	0	0	1	0	0	0	0	0	1	1	1	1	1	0	0	0	0	0	0	0	0	1	0	1	0	0	1	0	1	1	1	1	1	67	-91	15	
127	127	1	1	0	0	1	1	0	1	1	1	1	1	0	1	1	1	1	0	0	0	0	0	0	0	0	1	0	1	0	0	1	0	1	1	1	1	1	-77	-91	15	
128	128	1	0	0	1	1	0	1	0	0	0	0	0	1	1	0	0	1	0	1	0	0	0	0	0	0	0	0	0	1	0	1	0	1	1	1	1	1	89	-88	41	
129	129	1	1	0	0	0	0	1	1	1	1	1	1	0	1	0	0	1	0	1	0	0	0	0	0	0	0	0	0	1	0	1	0	1	1	1	1	1	-61	-88	41	
130	130	0	1	0	1	0	1	1	0	0	0	0	0	1	1	1	0	0	0	0	1	0	0	0	0	0	1	1	0	0	1	1	0	1	1	1	1	1	106	-77	67	
131	131	0	1	0	1	1	0	1	1	1	1	1	1	0	1	1	0	0	0	0	1	0	0	0	0	0	1	1	0	0	1	1	0	1	1	1	1	1	-38	-77	67	
132	132	1	0	0	0	1	1	1	0	0	0	0	0	1	1	0	0	1	1	0	1	0	0	0	0	0	1	1	0	0	0	0	1	1	1	1	1	1	113	-61	89	
133	133	1	1	0	0	1	1	1	1	1	1	1	1	0	1	0	0	1	1	0	1	0	0	0	0	0	1	1	0	0	0	0	1	1	1	1	1	1	-13	-61	89	
134	134	1	0	1	1	0	1	1	0	0	0	0	0	1	0	1	0	1	0	1	1	0	0	0	0	0	0	1	0	1	1	0	1	1	1	1	1	1	109	-38	106	
135	135	0	1	1	1	0	0	0	0	0	0	0	0	0	0	1	0	1	0	1	1	0	0	0	0	0	0	1	0	1	1	0	1	1	1	1	1	1	14	-38	106	
136	136	1	0	0	1	0	1	1	0	0	0	0	0	1	1	0	0	0	1	1	1	0	0	0	0	0	1	1	0	0	1	1	1	1	1	1	1	1	105	-13	113	
137	137	0	1	1	0	0	1	0	0	0	0	0	0	0	1	0	0	0	1	1	1	0	0	0	0	0	1	1	0	0	1	1	1	1	1	1	1	1	38	-13	113	
138	138	1	1	1	0	1	0	1	0	0	0	0	0	1	1	0	1	1	0	1	1	0	0	0	0	0	0	1	1	1	0	0	0	0	0	0	0	0	87	14	109	
139	139	0	0	0	1	1	1	0	0	0	0	0	0	0	1	0	1	1	0	1	1	0	0	0	0	0	0	1	1	1	0	0	0	0	0	0	0	0	56	14	109	
140	140	0	1	1	1	1	1	0	0	0	0	0	0	1	1	0	0	1	0	1	1	0	0	0	0	0	0	1	1	0	0	1	0	0	0	0	0	0	62	38	105	
141	141	1	1	0	0	0	0	1	0	0	0	0	0	0	1	0	0	1	0	1	1	0	0	0	0	0	0	1	1	0	0	1	0	0	0	0	0	0	67	38	105	
142	142	1	0	1	0	0	1	0	0	0	0	0	0	1	1	1	1	0	1	0	1	0	0	0	0	0	0	0	0	1	1	1	0	0	0	0	0	0	37	56	87	
143	143	1	0	0	1	0	0	1	0	0	0	0	0	0	1	1	1	0	1	0	1	0	0	0	0	0	0	0	0	1	1	1	0	0	0	0	0	0	73	56	87	
144	144	0	0	1	1	0	0	0	0	0	0	0	0	1	0	1	1	1	1	1	0	0	0	0	0	0	1	1	0	0	0	0	1	0	0	0	0	0	12	67	62	
145	145	0	0	1	0	0	0	1	0	0	0	0	0	0	0	1	1	1	1	1	0	0	0	0	0	0	1	1	0	0	0	0	1	0	0	0	0	0	68	67	62	
146	146	1	0	1	0	1	1	1	1	1	1	1	1	1	1	0	1	0	0	1	0	0	0	0	0	0	1	0	0	1	0	0	1	0	0	0	0	0	-11	73	37	
147	147	0	0	0	1	1	1	0	0	0	0	0	0	0	1	0	1	0	0	1	0	0	0	0	0	0	1	0	0	1	0	0	1	0	0	0	0	0	56	73	37	
148	148	1	0	0	0	0	1	1	1	1	1	1	1	1	0	0	1	1	0	0	0	0	0	0	0	0	0	0	1	0	0	0	1	0	0	0	0	0	-31	68	12	
149	149	0	1	1	0	0	1	0	0	0	0	0	0	0	0	0	1	1	0	0	0	0	0	0	0	0	0	0	1	0	0	0	1	0	0	0	0	0	38	68	12	
150	150	1	0	0	0	1	0	1	1	1	1	1	1	1	1	0	1	0	1	1	1	1	1	1	1	1	0	0	0	1	1	1	0	0	0	0	0	0	-47	56	-11	
151	151	0	1	1	1	0	0	0	0	0	0	0	0	0	1	0	1	0	1	1	1	1	1	1	1	1	0	0	0	1	1	1	0	0	0	0	0	0	14	56	-11	
152	152	1	0	1	1	0	0	1	1	1	1	1	1	1	1	0	0	0	0	1	1	1	1	1	1	1	0	1	1	0	0	1	0	0	0	0	0	0	-51	38	-31	
153	153	0	1	1	0	1	1	1	1	1	1	1	1	0	1	0	0	0	0	1	1	1	1	1	1	1	0	1	1	0	0	1	0	0	0	0	0	0	-10	38	-31	
154	154	0	0	1	1	0	0	1	1	1	1	1	1	1	1	0	0	0	1	0	1	1	1	1	1	1	0	1	1	1	0	0	0	0	0	0	0	0	-52	14	-47	
155	155	1	1	0	1	1	0	1	1	1	1	1	1	0	1	0	0	0	1	0	1	1	1	1	1	1	0	1	1	1	0	0	0	0	0	0	0	0	-37	14	-47	
156	156	0	1	1	0	1	0	1	1	1	1	1	1	1	1	0	1	1	0	0	1	1	1	1	1	1	0	1	1	0	1	1	1	1	1	1	1	1	-42	-10	-51	
157	157	1	1	1	0	0	0	1	1	1	1	1	1	0	1	0	1	1	0	0	1	1	1	1	1	1	0	1	1	0	1	1	1	1	1	1	1	1	-57	-10	-51	
158	158	1	1	0	0	0	1	1	1	1	1	1	1	1	0	0	1	1	0	0	1	1	1	1	1	1	1	1	0	1	1	0	1	1	1	1	1	1	-29	-37	-52	
159	159	1	0	1	0	1	1	0	1	1	1	1	1	0	0	0	1	1	0	0	1	1	1	1	1	1	1	1	0	1	1	0	1	1	1	1	1	1	-75	-37	-52	
160	160	0	0	0	1	1	1	1	1	1	1	1	1	1	0	1	1	0	1	0	1	1	1	1	1	1	1	1	1	0	0	0	1	1	1	1	1	1	-8	-57	-42	
161	161	0	1	1	0	0	1	0	1	1	1	1	1	0	0	1	1	0	1	0	1	1	1	1	1	1	1	1	1	0	0	0	1	1	1	1	1	1	-90	-57	-42	
162	162	1	0	0	0	1	0	0	0	0	0	0	0	1	1	1	0	0	0	1	1	1	1	1	1	1	1	0	1	0	1	1	0	1	1	1	1	1	17	-75	-29	
163	163	1	1	1	0	0	1	0	1	1	1	1	1	0	1	1	0	0	0	1	1	1	1	1	1	1	1	0	1	0	1	1	0	1	1	1	1	1	-89	-75	-29	
164	164	0	1	0	1	0	1	0	0	0	0	0	0	1	0	0	0	1	1	1	1	1	1	1	1	1	0	1	1	0	0	1	0	1	1	1	1	1	42	-90	-8	
165	165	0	0	0	1	0	1	0	1	1	1	1	1	0	0	0	0	1	1	1	1	1	1	1	1	1	0	1	1	0	0	1	0	1	1	1	1	1	-88	-90	-8	
166	166	0	0	1	0	0	0	1	0	0	0	0	0	1	1	0	0	0	1	0	0	0	0	0	0	0	1	1	1	0	0	1	0	1	1	1	1	1	68	-89	17	
167	167	0	0	1	0	1	1	0	1	1	1	1	1	0	1	0	0	0	1	0	0	0	0	0	0	0	1	1	1	0	0	1	0	1	1	1	1	1	-76	-89	17	
168	168	1	1	1	0	1	0	1	0	0	0	0	0	1	0	1	0	1	0	1	0	0	0	0	0	0	0	0	0	1	0	1	0	1	1	1	1	1	87	-88	42	
169	169	0	0	1	0	0	0	1	1	1	1	1	1	0	0	1	0	1	0	1	0	0	0	0	0	0	0	0	0	1	0	1	0	1	1	1	1	1	-60	-88	42	
170	170	0	1	0	1	0	1	1	0	0	0	0	0	1	0	0	1	0	0	0	1	0	0	0	0	0	0	0	1	0	1	1	0	1	1	1	1	1	106	-76	68	
171	171	0	1	0	1	1	0	1	1	1	1	1	1	0	0	0	1	0	0	0	1	0	0	0	0	0	0	0	1	0	1	1	0	1	1	1	1	1	-38	-76	68	
172	172	1	0	0	0	1	1	1	0	0	0	0	0	1	1	1	1	0	1	0	1	0	0	0	0	0	0	0	1	0	0	0	1	1	1	1	1	1	113	-60	87	
173	173	0	0	1	0	1	1	1	1	1	1	1	1	0	1	1	1	0	1	0	1	0	0	0	0	0	0	0	1	0	0	0	1	1	1	1	1	1	-12	-60	87	
174	174	1	1	1	1	0	1	1	0	0	0	0	0	1	0	1	0	1	0	1	1	0	0	0	0	0	0	1	0	1	1	0	1	1	1	1	1	1	111	-38	106	
175	175	0	1	1	1	0	0	0	0	0	0	0	0	0	0	1	0	1	0	1	1	0	0	0	0	0	0	1	0	1	1	0	1	1	1	1	1	1	14	-38	106	
176	176	0	1	1	0	0	1	1	0	0	0	0	0	1	1	0	0	0	1	1	1	0	0	0	0	0	0	0	1	0	1	1	1	1	1	1	1	1	102	-12	113	
177	177	0	1	1	0	0	1	0	0	0	0	0	0	0	1	0	0	0	1	1	1	0	0	0	0	0	0	0	1	0	1	1	1	1	1	1	1	1	38	-12	113	
178	178	1	0	0	1	1	0	1	0	0	0	0	0	1	1	1	1	1	0	1	1	0	0	0	0	0	0	1	1	1	0	0	0	0	0	0	0	0	89	14	111	
179	179	0	1	1	0	1	1	0	0	0	0	0	0	0	1	1	1	1	0	1	1	0	0	0	0	0	0	1	1	1	0	0	0	0	0	0	0	0	54	14	111	
180	180	0	1	0	0	0	0	1	0	0	0	0	0	1	0	1	1	0	0	1	1	0	0	0	0	0	0	1	1	0	0	1	0	0	0	0	0	0	66	38	102	
181	181	0	1	0	0	0	0	1	0	0	0	0	0	0	0	1	1	0	0	1	1	0	0	0	0	0	0	1	1	0	0	1	0	0	0	0	0	0	66	38	102	
182	182	1	1	0	1	0	1	0	0	0	0	0	0	1	1	0	0	1	1	0	1	0	0	0	0	0	0	1	1	0	1	1	0	0	0	0	0	0	43	54	89	
183	183	0	0	0	1	0	0	1	0	0	0	0	0	0	1	0	0	1	1	0	1	0	0	0	0	0	0	1	1	0	1	1	0	0	0	0	0	0	72	54	89	
184	184	0	0	0	0	1	0	0	0	0	0	0	0	1	0	1	0	0	0	0	1	0	0	0	0	0	0	1	0	0	0	0	1	0	0	0	0	0	16	66	66	
185	185	1	0	1	0	0	0	1	0	0	0	0	0	0	0	1	0	0	0	0	1	0	0	0	0	0	0	1	0	0	0	0	1	0	0	0	0	0	69	66	66	
186	186	1	1	1	0	1	1	1	1	1	1	1	1	1	1	1	0	1	0	1	0	0	0	0	0	0	0	0	0	1	0	0	1	0	0	0	0	0	-9	72	43	
187	187	1	1	0	1	1	1	0	0	0	0	0	0	0	1	1	0	1	0	1	0	0	0	0	0	0	0	0	0	1	0	0	1	0	0	0	0	0	59	72	43	
188	188	0	0	1	0	0	1	1	1	1	1	1	1	1	0	0	0	0	1	0	0	0	0	0	0	0	1	0	1	0	0	0	1	0	0	0	0	0	-28	69	16	
189	189	0	0	0	1	0	1	0	0	0	0	0	0	0	0	0	0	0	1	0	0	0	0	0	0	0	1	0	1	0	0	0	1	0	0	0	0	0	40	69	16	
190	190	1	0	1	0	1	0	1	1	1	1	1	1	1	1	1	1	0	1	1	1	1	1	1	1	1	1	1	0	1	1	1	0	0	0	0	0	0	-43	59	-9	
191	191	0	0	1	0	1	0	0	0	0	0	0	0	0	1	1	1	0	1	1	1	1	1	1	1	1	1	1	0	1	1	1	0	0	0	0	0	0	20	59	-9	
192	192	0	1	1	1	0	0	1	1	1	1	1	1	1	0	0	1	0	0	1	1	1	1	1	1	1	0	0	0	1	0	1	0	0	0	0	0	0	-50	40	-28	
193	193	0	0	1	1	1	1	1	1	1	1	1	1	0	0	0	1	0	0	1	1	1	1	1	1	1	0	0	0	1	0	1	0	0	0	0	0	0	-4	40	-28	
194	194	1	1	0	1	0	0	1	1	1	1	1	1	1	1	0	1	0	1	0	1	1	1	1	1	1	0	0	1	0	1	0	0	0	0	0	0	0	-53	20	-43	
195	195	0	0	0	0	0	1	1	1	1	1	1	1	0	1	0	1	0	1	0	1	1	1	1	1	1	0	0	1	0	1	0	0	0	0	0	0	0	-32	20	-43	
196	196	0	0	1	0	1	0	1	1	1	1	1	1	1	0	1	1	1	0	0	1	1	1	1	1	1	0	0	1	1	1	1	1	1	1	1	1	1	-44	-4	-50	
197	197	0	1	0	1	0	0	1	1	1	1	1	1	0	0	1	1	1	0	0	1	1	1	1	1	1	0	0	1	1	1	1	1	1	1	1	1	1	-54	-4	-50	
198	198	1	0	0	0	0	1	1	1	1	1	1	1	1	1	1	0	1	0	0	1	1	1	1	1	1	0	0	0	0	0	1	1	1	1	1	1	1	-31	-32	-53	
199	199	1	0	0	1	1	1	0	1	1	1	1	1	0	1	1	0	1	0	0	1	1	1	1	1	1	0	0	0	0	0	1	1	1	1	1	1	1	-71	-32	-53	
200	200	0	0	1	0	1	1	1	1	1	1	1	1	1	0	0	1	0	1	0	1	1	1	1	1	1	0	1	0	1	0	0	1	1	1	1	1	1	-12	-54	-44	
201	201	1	1	0	1	0	1	0	1	1	1	1	1	0	0	0	1	0	1	0	1	1	1	1	1	1	0	1	0	1	0	0	1	1	1	1	1	1	-85	-54	-44	
202	202	1	1	0	1	0	0	0	0	0	0	0	0	1	1	0	0	0	0	1	1	1	1	1	1	1	1	0	0	1	1	1	0	1	1	1	1	1	11	-71	-31	
203	203	0	0	0	1	0	1	0	1	1	1	1	1	0	1	0	0	0	0	1	1	1	1	1	1	1	1	0	0	1	1	1	0	1	1	1	1	1	-88	-71	-31	
204	204	1	0	1	0	0	1	0	0	0	0	0	0	1	0	0	1	0	1	1	1	1	1	1	1	1	1	1	0	1	0	1	0	1	1	1	1	1	37	-85	-12	
205	205	1	1	1	0	0	1	0	1	1	1	1	1	0	0	0	1	0	1	1	1	1	1	1	1	1	1	1	0	1	0	1	0	1	1	1	1	1	-89	-85	-12	
206	206	1	0	1	1	1	1	0	0	0	0	0	0	1	1	1	0	1	0	0	0	0	0	0	0	0	0	0	0	1	0	1	0	1	1	1	1	1	61	-88	11	
207	207	0	0	0	0	1	1	0	1	1	1	1	1	0	1	1	0	1	0	0	0	0	0	0	0	0	0	0	0	1	0	1	0	1	1	1	1	1	-80	-88	11	
208	208	0	1	0	0	1	0	1	0	0	0	0	0	1	1	0	1	0	0	1	0	0	0	0	0	0	1	1	1	0	0	1	0	1	1	1	1	1	82	-89	37	
