Sample in Buffer	Sample in Window	trig0/data0	trig1/data1	trig2/data2	trig3/data3
0	0	5	-10828	-11536	2336	
1	1	2	-11249	-13746	2376	
2	2	2	-14421	-13039	2336	
3	3	4	-17361	-12622	2296	
4	4	2	-16111	-13317	2336	
5	5	4	-12093	-12369	2296	
6	6	3	-9598	-11291	2336	
7	7	1	-11633	-13393	2376	
8	8	9	-16652	-17156	2336	
9	9	2	-18032	-18179	2376	
10	10	3	-13950	-13499	2416	
11	11	1	-11513	-7353	2456	
12	12	2	-13185	-7587	2416	
13	13	3	-14444	-14712	2456	
14	14	-8	-14443	-18711	2416	
15	15	3	-18338	-15367	2376	
16	16	0	-23145	-13790	2416	
17	17	4	-21828	-18893	2376	
18	18	0	-17850	-22850	2416	
19	19	4	-19608	-21650	2376	
20	20	0	-22605	-22106	2416	
21	21	2	-17992	-27381	2456	
22	22	3	-10646	-28924	2416	
23	23	2	-10327	-22171	2376	
24	24	-1	-14526	-14993	2416	
25	25	4	-16359	-13441	2376	
26	26	2	-15213	-15159	2416	
27	27	2	-13818	-16505	2456	
28	28	2	-14841	-16975	2416	
29	29	2	-17588	-16838	2456	
30	30	4	-17392	-14778	2416	
31	31	-2	-12679	-12548	2456	
32	32	0	-10935	-13539	2496	
33	33	2	-16378	-17435	2456	
34	34	2	-20441	-20813	2416	
35	35	2	-18595	-20233	2456	
36	36	0	-16561	-15615	2496	
37	37	1	-16417	-10676	2456	
38	38	2	-13000	-10242	2416	
39	39	-3	-8473	-13925	2456	
40	40	4	-10822	-16155	2416	
41	41	2	-18143	-16676	2456	
42	42	1	-20783	-18466	2496	
43	43	2	-17117	-18648	2456	
44	44	-2	-13173	-14744	2496	
45	45	2	-11856	-11531	2456	
46	46	-3	-10371	-12836	2496	
47	47	-2	-9613	-14167	2536	
48	48	-2	-12749	-12697	2576	
49	49	-5	-17868	-14376	2616	
50	50	1	-20250	-19537	2576	
51	51	-2	-16983	-19916	2616	
52	52	2	-11495	-14525	2576	
53	53	2	-9214	-12827	2536	
54	54	2	-9960	-18023	2496	
55	55	1	-9122	-21647	2456	
56	56	2	-7127	-19700	2416	
57	57	2	-8977	-17689	2376	
58	58	2	-13520	-16989	2336	
59	59	1	-14918	-13593	2376	
60	60	2	-14588	-8546	2416	
61	61	1	-17178	-9016	2456	
62	62	0	-20468	-15091	2496	
63	63	4	-19945	-17964	2456	
64	64	2	-16564	-15402	2416	
65	65	1	-13831	-12564	2456	
66	66	-4	-11863	-11923	2496	
67	67	0	-11301	-12948	2536	
68	68	-2	-12243	-15441	2576	
69	69	0	-12257	-15922	2536	
70	70	2	-12957	-11749	2496	
71	71	2	-16151	-8818	2456	
72	72	1	-17674	-13322	2496	
73	73	0	-12910	-19386	2536	
74	74	0	-6995	-19590	2576	
75	75	1	-7711	-17444	2536	
76	76	0	-13689	-18064	2576	
77	77	0	-17423	-16819	2536	
78	78	1	-15608	-10236	2496	
79	79	2	-11762	-6146	2456	
80	80	6	-10619	-9922	2416	
81	81	-1	-12390	-15142	2456	
82	82	1	-14884	-15383	2496	
83	83	1	-16300	-13574	2456	
84	84	-4	-17147	-16271	2496	
85	85	-4	-18970	-20241	2456	
86	86	3	-20941	-17677	2416	
87	87	1	-19545	-10519	2456	
88	88	2	-15663	-8583	2416	
89	89	2	-15062	-14286	2376	
90	90	3	-16988	-20144	2336	
91	91	-2	-12647	-20378	2376	
92	92	2	-3785	-16830	2336	
93	93	0	-2728	-14447	2376	
94	94	-1	-10538	-13960	2416	
95	95	0	-15137	-11565	2456	
96	96	-2	-13045	-8256	2416	
97	97	2	-11806	-9500	2376	
98	98	0	-11315	-13190	2416	
99	99	2	-7746	-12688	2376	
100	100	1	-5452	-10112	2336	
101	101	2	-7322	-12475	2296	
102	102	0	-7620	-15872	2336	
103	103	-1	-4458	-12830	2376	
104	104	1	-4716	-9419	2416	
105	105	1	-9297	-12236	2456	
106	106	2	-11417	-13897	2416	
107	107	2	-9913	-9695	2376	
108	108	0	-8571	-6219	2416	
109	109	0	-6871	-7154	2456	
110	110	-2	-4528	-10366	2496	
111	111	-2	-6240	-15955	2536	
112	112	0	-12760	-20919	2576	
113	113	0	-16155	-18417	2536	
114	114	-2	-12746	-10215	2496	
115	115	0	-8638	-5976	2456	
116	116	-4	-6818	-8460	2416	
117	117	2	-4780	-11237	2376	
118	118	0	-2797	-11681	2416	
119	119	0	-4551	-11781	2456	
120	120	-2	-7838	-10448	2416	
121	121	-7	-6765	-7073	2376	
122	122	-1	-1641	-4778	2416	
123	123	-1	1968	-5611	2456	
124	124	1	305	-7384	2416	
125	125	-1	-4866	-7676	2456	
126	126	0	-7535	-6265	2496	
127	127	-2	-4047	-7106	2536	
128	128	4	2111	-12200	2496	
129	129	1	4657	-15865	2456	
130	130	4	1513	-12204	2416	
131	131	-2	-3073	-5555	2456	
132	132	-3	-4909	-4305	2496	
133	133	-2	-4461	-8695	2536	
134	134	0	-5059	-12428	2576	
135	135	1	-8744	-11561	2536	
136	136	-2	-14070	-8455	2576	
137	137	1	-16046	-5464	2536	
138	138	-1	-10334	-5057	2576	
139	139	1	-2420	-9986	2536	
140	140	2	-3603	-18494	2496	
141	141	-1	-13132	-23470	2536	
142	142	2	-17856	-19254	2496	
143	143	-2	-12123	-10995	2536	
144	144	-3	-6763	-8707	2576	
145	145	2	-9824	-12403	2616	
146	146	0	-13645	-13235	2576	
147	147	2	-11515	-8877	2536	
148	148	-3	-9143	-5988	2576	
149	149	0	-11584	-9213	2536	
150	150	4	-13307	-14765	2496	
151	151	-3	-8384	-16090	2536	
152	152	1	-2262	-9504	2496	
153	153	0	-2038	-399	2536	
154	154	2	-5705	260	2496	
155	155	4	-7619	-7574	2456	
156	156	3	-8535	-12798	2416	
157	157	-2	-11404	-10884	2456	
158	158	-1	-12859	-8487	2496	
159	159	2	-8933	-8968	2456	
160	160	0	-4033	-8676	2496	
161	161	2	-5549	-5771	2456	
162	162	1	-12458	-2844	2416	
163	163	-2	-15760	-3411	2376	
164	164	2	-11693	-7930	2416	
165	165	2	-5714	-11662	2376	
166	166	-4	-4392	-11480	2336	
167	167	1	-9263	-9767	2376	
168	168	0	-12985	-8553	2416	
169	169	2	-8864	-6017	2456	
170	170	-2	-3273	-4847	2496	
171	171	1	-5626	-8880	2456	
172	172	2	-10696	-12683	2416	
173	173	-2	-7896	-11668	2456	
174	174	0	-2653	-11152	2496	
175	175	2	-4807	-13431	2456	
176	176	-2	-8163	-11995	2496	
177	177	0	-6064	-7056	2536	
178	178	-2	-5765	-6931	2576	
179	179	0	-10912	-11935	2536	
180	180	1	-12328	-14643	2496	
181	181	0	-7803	-12540	2536	
182	182	0	-5843	-9039	2576	
183	183	2	-8418	-8611	2536	
184	184	-2	-9484	-12552	2576	
185	185	-1	-7770	-15193	2616	
186	186	-7	-6685	-12086	2656	
187	187	6	-8004	-7519	2696	
188	188	-2	-9759	-9126	2736	
189	189	0	-10691	-12227	2696	
190	190	0	-11160	-9507	2656	
191	191	-2	-10727	-6921	2696	
192	192	-2	-8315	-11904	2736	
193	193	4	-6057	-17586	2696	
194	194	1	-8461	-15405	2656	
195	195	4	-15536	-9729	2696	
196	196	5	-19810	-8179	2736	
197	197	4	-16137	-9652	2776	
198	198	-2	-9292	-10734	2736	
199	199	5	-9484	-11430	2696	
200	200	7	-17663	-11947	2736	
201	201	4	-24120	-10951	2696	
202	202	1	-22605	-6225	2656	
203	203	5	-18457	820	2696	
204	204	1	-16390	3029	2656	
205	205	2	-15599	-1835	2616	
206	206	2	-17587	-6089	2576	
207	207	4	-24564	-3127	2536	
208	208	1	-29227	563	2496	
209	209	2	-25047	-1134	2456	
210	210	0	-18218	-3665	2496	
211	211	2	-17351	-4194	2456	
212	212	1	-19719	-6271	2496	
213	213	5	-19218	-7880	2456	
214	214	0	-16609	-5909	2496	
215	215	4	-15990	-4892	2456	
216	216	1	-15964	-8665	2496	
217	217	6	-13325	-11613	2456	
218	218	1	-10303	-11010	2416	
219	219	6	-12532	-10949	2376	
220	220	1	-17070	-11672	2416	
221	221	2	-17150	-10070	2376	
222	222	2	-14185	-8652	2416	
223	223	2	-14333	-9767	2376	
224	224	-4	-17025	-10401	2416	
225	225	5	-18412	-7929	2456	
226	226	2	-17544	-6836	2416	
227	227	-2	-15366	-9353	2456	
228	228	2	-13924	-11386	2416	
229	229	0	-14597	-12716	2456	
230	230	0	-14257	-16158	2496	
231	231	2	-10603	-17718	2456	
232	232	-1	-7307	-12353	2496	
233	233	2	-9577	-6806	2456	
234	234	2	-13972	-10821	2416	
235	235	2	-14954	-19559	2376	
236	236	-2	-13546	-21856	2416	
237	237	4	-13360	-16882	2376	
238	238	0	-12715	-13094	2416	
239	239	2	-11696	-13683	2456	
240	240	6	-13359	-14510	2496	
241	241	1	-16958	-14939	2456	
242	242	4	-16755	-14845	2416	
243	243	1	-11064	-11476	2456	
244	244	5	-6738	-8567	2416	
245	245	-2	-10154	-13612	2456	
246	246	-1	-17745	-21543	2496	
247	247	4	-20648	-18881	2456	
248	248	2	-17563	-8703	2416	
249	249	2	-15139	-6218	2376	
250	250	8	-16727	-10894	2336	
251	251	-3	-16686	-11360	2296	
252	252	7	-12251	-9388	2256	
253	253	0	-8567	-12530	2296	
254	254	1	-9397	-14462	2336	
255	255	5	-12367	-8863	2296	
256	256	2	-14346	-4763	2336	
257	257	5	-15761	-7560	2296	
258	258	1	-15579	-10167	2336	
259	259	2	-13067	-9411	2296	
260	260	-2	-10019	-9701	2336	
261	261	-1	-8580	-11276	2376	
262	262	2	-9316	-9616	2416	
263	263	0	-11150	-6525	2376	
264	264	2	-14051	-7729	2416	
265	265	2	-15559	-11632	2376	
266	266	6	-12378	-12967	2336	
267	267	-1	-6282	-13006	2376	
268	268	4	-3832	-14776	2336	
269	269	5	-6260	-15549	2296	
270	270	1	-8286	-12789	2336	
271	271	2	-8637	-10635	2376	
272	272	2	-12801	-12322	2416	
273	273	-2	-18187	-15239	2456	
274	274	2	-17860	-16146	2416	
275	275	2	-14612	-15124	2376	
276	276	1	-14835	-13884	2416	
277	277	0	-16875	-14028	2456	
278	278	4	-16507	-17266	2416	
279	279	4	-14587	-21792	2376	
280	280	3	-13272	-23025	2336	
281	281	4	-13256	-19426	2296	
282	282	5	-13246	-13392	2256	
283	283	4	-10241	-8093	2216	
284	284	2	-7459	-8097	2256	
285	285	1	-10969	-11796	2296	
286	286	-2	-17688	-12073	2336	
287	287	6	-19077	-9140	2296	
288	288	2	-16648	-11156	2336	
289	289	0	-18284	-17837	2376	
290	290	2	-20667	-17157	2336	
291	291	4	-15547	-9121	2376	
292	292	2	-6667	-8388	2416	
293	293	4	-5304	-17850	2376	
294	294	2	-11542	-21422	2336	
295	295	6	-13768	-10763	2296	
296	296	0	-7943	-274	2336	
297	297	1	-5201	-4202	2376	
298	298	4	-12530	-16215	2336	
299	299	2	-20007	-22164	2376	
300	300	1	-18494	-17242	2416	
301	301	1	-14713	-8988	2456	
302	302	2	-15255	-6836	2416	
303	303	-1	-15289	-12360	2456	
304	304	5	-12403	-17635	2416	
305	305	2	-12140	-17476	2376	
306	306	2	-15743	-17008	2336	
307	307	0	-16818	-17789	2376	
308	308	1	-12012	-13904	2416	
309	309	2	-7155	-8261	2376	
310	310	4	-9363	-10791	2336	
311	311	2	-17212	-18823	2376	
312	312	0	-21368	-18638	2416	
313	313	1	-16953	-10711	2376	
314	314	1	-9738	-9478	2416	
315	315	2	-7727	-15135	2376	
316	316	2	-11420	-16340	2416	
317	317	2	-15924	-12976	2376	
318	318	0	-17156	-13367	2416	
319	319	4	-14635	-17063	2376	
320	320	2	-10279	-16652	2336	
321	321	-2	-7957	-12455	2376	
322	322	2	-10149	-10137	2336	
323	323	-2	-13819	-12731	2296	
324	324	-1	-14857	-16556	2256	
325	325	3	-13772	-16692	2296	
326	326	2	-12908	-12153	2336	
327	327	1	-11837	-7693	2376	
328	328	-3	-9756	-8809	2336	
329	329	0	-7431	-12593	2376	
330	330	4	-3913	-10763	2336	
331	331	1	-9	-6092	2296	
332	332	1	-2698	-9435	2336	
333	333	1	-12435	-19093	2376	
334	334	1	-16407	-23095	2416	
335	335	2	-8685	-18982	2376	
336	336	0	-2630	-15537	2416	
337	337	8	-7799	-14141	2376	
338	338	1	-12518	-9944	2416	
339	339	2	-8884	-5701	2376	
340	340	2	-5517	-6760	2416	
341	341	-1	-7143	-10447	2456	
342	342	2	-8252	-10260	2416	
343	343	1	-8641	-8052	2456	
344	344	-1	-12833	-7694	2496	
345	345	4	-18275	-9147	2456	
346	346	-3	-17038	-10325	2496	
347	347	0	-9480	-7494	2536	
348	348	0	-3513	-1945	2576	
349	349	2	-4495	-2896	2536	
350	350	5	-10167	-12287	2496	
351	351	0	-14150	-18563	2536	
352	352	2	-14938	-16106	2496	
353	353	1	-13682	-13564	2456	
354	354	2	-10007	-15217	2416	
355	355	-2	-6347	-14016	2456	
356	356	-2	-8279	-7843	2416	
357	357	-2	-15201	-4293	2456	
358	358	-2	-17150	-5819	2416	
359	359	1	-12066	-6965	2456	
360	360	2	-8470	-5117	2416	
361	361	1	-9113	-4462	2456	
362	362	2	-8110	-6658	2416	
363	363	2	-4032	-10301	2376	
364	364	8	-745	-12732	2336	
365	365	1	-20	-11967	2376	
366	366	2	-2758	-9825	2336	
367	367	2	-8536	-9014	2296	
368	368	1	-11485	-9218	2336	
369	369	-2	-8603	-7613	2376	
370	370	1	-7616	-3679	2416	
371	371	2	-13358	-2712	2376	
372	372	2	-18057	-6999	2336	
373	373	2	-14903	-10170	2376	
374	374	1	-9868	-8935	2416	
375	375	2	-8885	-10017	2376	
376	376	0	-7886	-14959	2416	
377	377	2	-4472	-14124	2376	
378	378	0	-3499	-5655	2416	
379	379	5	-7992	-2827	2376	
380	380	-1	-13084	-11639	2336	
381	381	3	-15572	-21087	2296	
382	382	2	-15301	-20331	2336	
383	383	3	-11865	-13403	2296	
384	384	2	-8145	-9531	2336	
385	385	0	-8208	-9360	2376	
386	386	2	-10611	-7924	2336	
387	387	2	-9406	-3953	2296	
388	388	2	-5457	-1629	2336	
389	389	4	-6131	-4150	2296	
390	390	2	-11976	-10661	2336	
391	391	2	-15721	-17864	2376	
392	392	0	-13503	-20145	2416	
393	393	2	-8927	-14002	2376	
394	394	5	-6724	-5926	2336	
395	395	2	-8660	-6358	2376	
396	396	2	-13683	-14222	2416	
397	397	5	-17098	-18354	2376	
398	398	2	-14417	-16525	2336	
399	399	3	-10356	-15577	2376	
400	400	2	-11227	-15408	2416	
401	401	3	-15715	-13580	2376	
402	402	1	-18202	-14750	2416	
403	403	2	-18494	-19539	2376	
404	404	2	-19159	-19929	2416	
405	405	2	-19092	-15164	2376	
406	406	2	-17721	-14844	2336	
407	407	7	-16939	-18848	2376	
408	408	-1	-15608	-17416	2416	
409	409	1	-12414	-9694	2456	
410	410	1	-10126	-6142	2416	
411	411	4	-11150	-10525	2376	
412	412	6	-12858	-14575	2336	
413	413	0	-13455	-12067	2376	
414	414	4	-14921	-6810	2336	
415	415	4	-14578	-5640	2296	
416	416	1	-9676	-9795	2336	
417	417	3	-7036	-12640	2296	
418	418	-2	-11865	-10008	2336	
419	419	3	-17794	-6866	2296	
420	420	2	-16869	-8266	2336	
421	421	2	-12829	-10703	2296	
422	422	2	-12482	-9344	2256	
423	423	2	-13524	-6691	2296	
424	424	2	-10977	-7828	2256	
425	425	0	-6989	-11739	2216	
426	426	0	-6802	-14088	2256	
427	427	1	-10055	-12977	2296	
428	428	-1	-11423	-10589	2336	
429	429	2	-10339	-9700	2376	
430	430	1	-9276	-9391	2416	
431	431	0	-7902	-6540	2456	
432	432	6	-5251	-2013	2416	
433	433	2	-2373	-2492	2376	
434	434	2	-2453	-9765	2336	
435	435	0	-5328	-15450	2376	
436	436	1	-7551	-14582	2416	
437	437	1	-7016	-10440	2376	
438	438	2	-6140	-7133	2336	
439	439	2	-8971	-4473	2296	
440	440	1	-13463	-2888	2336	
441	441	2	-13689	-4577	2296	
442	442	6	-9987	-9645	2256	
443	443	-2	-7782	-14483	2296	
444	444	4	-9666	-14854	2336	
445	445	0	-10960	-10087	2376	
446	446	1	-9031	-6439	2416	
447	447	4	-7780	-8497	2376	
448	448	1	-9925	-12109	2416	
449	449	2	-12667	-10942	2456	
450	450	0	-11520	-6644	2496	
451	451	1	-7938	-7129	2456	
452	452	3	-8762	-15223	2416	
453	453	0	-13393	-21984	2456	
454	454	2	-15588	-18557	2416	
455	455	2	-14556	-11497	2376	
456	456	2	-14310	-12648	2416	
457	457	4	-14145	-17140	2456	
458	458	-2	-12660	-15505	2496	
459	459	2	-13094	-11657	2456	
460	460	2	-15229	-12978	2416	
461	461	2	-14639	-15619	2376	
462	462	1	-12360	-13355	2416	
463	463	4	-11888	-8393	2376	
464	464	1	-12483	-7197	2416	
465	465	2	-11682	-10123	2376	
466	466	1	-11562	-13341	2416	
467	467	2	-12489	-11817	2376	
468	468	0	-11081	-6829	2416	
469	469	2	-9526	-5622	2456	
470	470	1	-11122	-8702	2416	
471	471	-3	-13046	-10547	2456	
472	472	2	-13193	-11041	2416	
473	473	2	-12613	-13250	2376	
474	474	3	-11609	-14366	2336	
475	475	0	-9672	-10707	2376	
476	476	5	-8875	-6655	2336	
477	477	0	-8675	-7475	2376	
478	478	2	-7579	-12473	2416	
479	479	4	-8477	-16042	2376	
480	480	-2	-12420	-15425	2416	
481	481	2	-14890	-12364	2376	
482	482	9	-13494	-10378	2336	
483	483	1	-11048	-10729	2376	
484	484	0	-11380	-12225	2416	
485	485	1	-14157	-12956	2456	
486	486	2	-15209	-14374	2416	
487	487	4	-12608	-17083	2376	
488	488	2	-11180	-16698	2416	
489	489	1	-15937	-11388	2376	
490	490	1	-20231	-7393	2336	
491	491	2	-15577	-10738	2296	
492	492	4	-8723	-16315	2256	
493	493	7	-10915	-16779	2216	
494	494	2	-18808	-15094	2256	
495	495	5	-21047	-15409	2216	
496	496	0	-15292	-14267	2256	
497	497	2	-7864	-9356	2296	
498	498	1	-5266	-5358	2336	
499	499	4	-9606	-5802	2296	
500	500	2	-16640	-10789	2256	
501	501	1	-19717	-16457	2296	
502	502	7	-16877	-15951	2256	
503	503	2	-10237	-9932	2296	
504	504	1	-5865	-8219	2336	
505	505	1	-8100	-12963	2376	
506	506	2	-11978	-14010	2336	
507	507	3	-11351	-9827	2296	
508	508	0	-10435	-11578	2336	
509	509	4	-15363	-19331	2296	
510	510	0	-19394	-21226	2336	
511	511	2	-15085	-16624	2376	
512	512	1	-8765	-13916	2416	
513	513	4	-9026	-13404	2376	
514	514	2	-11958	-12062	2416	
515	515	3	-12423	-12513	2376	
516	516	3	-12440	-16292	2336	
517	517	7	-13744	-19802	2296	
518	518	4	-12654	-19180	2256	
519	519	1	-10343	-15225	2296	
520	520	4	-12077	-11380	2256	
521	521	2	-15962	-11994	2296	
522	522	4	-16920	-15181	2256	
523	523	4	-16600	-15159	2216	
524	524	1	-18813	-11596	2256	
525	525	2	-20236	-9304	2296	
526	526	1	-15840	-9468	2336	
527	527	2	-9865	-10273	2376	
528	528	2	-9632	-12055	2336	
529	529	5	-14118	-13929	2296	
530	530	1	-15418	-12800	2336	
531	531	5	-12267	-10353	2296	
532	532	2	-8483	-10044	2336	
533	533	2	-6778	-11040	2376	
534	534	4	-8009	-11467	2336	
535	535	1	-11363	-11794	2376	
536	536	0	-13832	-11409	2416	
537	537	2	-14891	-11157	2376	
538	538	2	-15789	-13924	2336	
539	539	6	-16480	-18599	2296	
540	540	-2	-15329	-17856	2256	
541	541	3	-13570	-11601	2296	
542	542	3	-12662	-9284	2256	
543	543	5	-11784	-14921	2296	
544	544	4	-11541	-20005	2256	
545	545	1	-13772	-16068	2296	
546	546	2	-15671	-8150	2336	
547	547	8	-12671	-6941	2296	
548	548	2	-7307	-12688	2336	
549	549	4	-7871	-14444	2296	
550	550	2	-13292	-7379	2336	
551	551	0	-14628	-1153	2376	
552	552	2	-10380	-4520	2416	
553	553	4	-9026	-12066	2376	
554	554	9	-14319	-13821	2336	
555	555	7	-18639	-9741	2296	
556	556	4	-16225	-6020	2256	
557	557	7	-11628	-6812	2216	
558	558	3	-9313	-12460	2256	
559	559	3	-10471	-18763	2216	
560	560	4	-16582	-20950	2176	
561	561	2	-25946	-18140	2136	
562	562	2	-30370	-13556	2176	
563	563	4	-26297	-10868	2136	
564	564	3	-20564	-12925	2176	
565	565	4	-18237	-17490	2136	
566	566	1	-16360	-18182	2176	
567	567	2	-13192	-12939	2216	
568	568	2	-10100	-8167	2256	
569	569	1	-7968	-8052	2296	
570	570	2	-7801	-9664	2336	
571	571	7	-10236	-10368	2296	
572	572	3	-11997	-11893	2336	
573	573	3	-10061	-13634	2296	
574	574	2	-7681	-14360	2336	
575	575	4	-7910	-15894	2296	
576	576	2	-8006	-17291	2256	
577	577	-2	-8405	-14757	2216	
578	578	3	-13012	-9745	2256	
579	579	2	-17734	-7983	2296	
580	580	1	-15488	-8991	2336	
581	581	5	-11326	-9523	2296	
582	582	2	-12786	-11130	2256	
583	583	2	-14186	-12455	2296	
584	584	5	-8335	-8831	2256	
585	585	3	-2199	-4562	2216	
586	586	2	-4633	-8582	2256	
587	587	2	-11375	-15869	2216	
588	588	-1	-13775	-14906	2176	
589	589	1	-11890	-8476	2216	
590	590	3	-10557	-6748	2176	
591	591	1	-11622	-9583	2216	
592	592	1	-13492	-10729	2256	
593	593	3	-13336	-9028	2296	
594	594	5	-9024	-7145	2256	
595	595	1	-3188	-6406	2296	
596	596	1	-1935	-6927	2336	
597	597	1	-5404	-9000	2296	
598	598	1	-8207	-14359	2336	
599	599	3	-8580	-21631	2296	
600	600	6	-9924	-22886	2256	
601	601	3	-12920	-15061	2296	
602	602	3	-13358	-7224	2256	
603	603	0	-10071	-8431	2296	
604	604	5	-7505	-14530	2256	
605	605	1	-7281	-15825	2296	
606	606	1	-9473	-12393	2336	
607	607	4	-14861	-10923	2296	
608	608	1	-18440	-12601	2336	
609	609	1	-14907	-12778	2376	
610	610	0	-8945	-9069	2416	
611	611	7	-8216	-6445	2456	
612	612	3	-10858	-10827	2496	
613	613	1	-12649	-19068	2456	
614	614	4	-14342	-21049	2416	
615	615	1	-13784	-14993	2456	
616	616	3	-9232	-10446	2416	
617	617	0	-6717	-10901	2456	
618	618	3	-10760	-8967	2416	
619	619	5	-14717	-2491	2376	
620	620	3	-13349	-557	2336	
621	621	-1	-12127	-6329	2376	
622	622	4	-14950	-10905	2336	
623	623	-2	-15250	-10848	2376	
624	624	3	-11892	-11183	2336	
625	625	2	-11835	-11915	2296	
626	626	9	-16740	-10575	2256	
627	627	5	-19355	-10868	2216	
628	628	-1	-16541	-15387	2256	
629	629	3	-14043	-19754	2216	
630	630	3	-12966	-20629	2256	
631	631	4	-9850	-17358	2296	
632	632	0	-8164	-9437	2336	
633	633	1	-14083	-2133	2376	
634	634	1	-20993	-4278	2416	
635	635	3	-17020	-12968	2376	
636	636	4	-7661	-16212	2336	
637	637	1	-7221	-13565	2376	
638	638	3	-13952	-13483	2336	
639	639	1	-14668	-16034	2376	
640	640	5	-8384	-14779	2336	
641	641	1	-4549	-9435	2376	
642	642	6	-7035	-3826	2416	
643	643	5	-10225	-1018	2376	
644	644	3	-11086	-3715	2336	
645	645	1	-12054	-11456	2376	
646	646	3	-15177	-18433	2336	
647	647	4	-16763	-18488	2296	
648	648	6	-14431	-12718	2256	
649	649	5	-12774	-5726	2216	
650	650	-1	-14798	-1436	2256	
651	651	5	-16467	-2097	2216	
652	652	3	-13337	-6948	2176	
653	653	1	-10226	-12343	2216	
654	654	3	-14326	-14903	2176	
655	655	3	-20945	-13313	2136	
656	656	3	-19666	-9560	2176	
657	657	3	-11676	-7092	2136	
658	658	1	-7955	-8171	2176	
659	659	0	-10516	-11247	2216	
660	660	2	-11620	-11773	2256	
661	661	1	-8585	-10090	2296	
662	662	1	-7644	-10625	2336	
663	663	0	-10192	-11286	2376	
664	664	1	-10564	-8130	2416	
665	665	0	-7490	-7810	2456	
666	666	3	-5589	-15877	2416	
667	667	5	-6270	-22557	2376	
668	668	3	-7516	-19281	2336	
669	669	4	-8682	-13633	2296	
670	670	1	-9235	-14910	2336	
671	671	0	-9060	-18437	2376	
672	672	0	-9375	-16727	2416	
673	673	1	-12373	-13373	2456	
674	674	5	-17750	-13174	2496	
675	675	1	-20844	-13152	2456	
676	676	1	-18321	-10174	2416	
677	677	3	-13050	-8412	2376	
678	678	2	-9558	-13546	2336	
679	679	0	-9791	-22531	2376	
680	680	0	-12590	-23334	2416	
681	681	3	-13675	-11482	2376	
682	682	1	-11070	-942	2416	
683	683	3	-9239	-3007	2376	
