Sample in Buffer	Sample in Window	trig0/data0	trig1/data1
0	0	0	25	
1	1	-1	29	
2	2	1	28	
3	3	-1	29	
4	4	3	24	
5	5	-1	29	
6	6	4	27	
7	7	1	27	
8	8	3	27	
9	9	1	27	
10	10	1	26	
11	11	4	29	
12	12	2	28	
13	13	1	24	
14	14	1	29	
15	15	2	28	
16	16	0	31	
17	17	-1	27	
18	18	1	28	
19	19	0	28	
20	20	4	27	
21	21	2	30	
22	22	3	29	
23	23	2	29	
24	24	1	27	
25	25	-1	29	
26	26	1	27	
27	27	2	31	
28	28	1	27	
29	29	3	29	
30	30	2	28	
31	31	1	29	
32	32	1	28	
33	33	4	30	
34	34	1	27	
35	35	-1	28	
36	36	4	27	
37	37	3	29	
38	38	-1	28	
39	39	2	31	
40	40	4	29	
41	41	4	29	
42	42	2	24	
43	43	3	27	
44	44	2	28	
45	45	2	26	
46	46	6	28	
47	47	2	29	
48	48	6	29	
49	49	1	29	
50	50	3	28	
51	51	-1	31	
52	52	6	29	
53	53	6	29	
54	54	3	28	
55	55	4	29	
56	56	4	30	
57	57	4	28	
58	58	3	30	
59	59	4	31	
60	60	5	29	
61	61	3	29	
62	62	4	32	
63	63	4	31	
64	64	5	32	
65	65	2	29	
66	66	3	29	
67	67	2	27	
68	68	5	28	
69	69	4	29	
70	70	4	28	
71	71	1	29	
72	72	2	32	
73	73	6	29	
74	74	4	28	
75	75	2	32	
76	76	2	29	
77	77	-1	28	
78	78	2	29	
79	79	4	29	
80	80	1	29	
81	81	3	29	
82	82	2	28	
83	83	2	29	
84	84	2	28	
85	85	1	27	
86	86	0	28	
87	87	2	29	
88	88	6	29	
89	89	2	27	
90	90	1	28	
91	91	2	29	
92	92	1	28	
93	93	1	29	
94	94	1	29	
95	95	1	27	
96	96	0	28	
97	97	1	28	
98	98	0	28	
99	99	-1	28	
100	100	1	29	
101	101	-1	29	
102	102	1	29	
103	103	1	29	
104	104	-1	29	
105	105	2	25	
106	106	-1	29	
107	107	1	28	
108	108	4	28	
109	109	-1	29	
110	110	-1	29	
111	111	-1	24	
112	112	1	29	
113	113	-1	28	
114	114	-1	24	
115	115	1	29	
116	116	-1	29	
117	117	-2	27	
118	118	2	29	
119	119	1	27	
120	120	2	24	
121	121	-1	27	
122	122	4	27	
123	123	-1	28	
124	124	3	28	
125	125	1	28	
126	126	1	28	
127	127	1	27	
128	128	2	28	
129	129	-1	28	
130	130	4	28	
131	131	-2	28	
132	132	2	32	
133	133	2	29	
134	134	4	29	
135	135	4	27	
136	136	5	29	
137	137	3	29	
138	138	7	30	
139	139	1	29	
140	140	5	32	
141	141	6	31	
142	142	2	31	
143	143	5	32	
144	144	5	32	
145	145	5	32	
146	146	3	29	
147	147	5	30	
148	148	6	32	
149	149	3	31	
150	150	3	31	
151	151	6	29	
152	152	6	29	
153	153	6	29	
154	154	6	28	
155	155	5	31	
156	156	6	29	
157	157	7	32	
158	158	5	29	
159	159	7	30	
160	160	6	29	
161	161	7	32	
162	162	4	29	
163	163	6	29	
164	164	3	29	
165	165	6	29	
166	166	6	29	
167	167	4	28	
168	168	4	29	
169	169	3	29	
170	170	3	29	
171	171	1	29	
172	172	-1	29	
173	173	1	27	
174	174	1	28	
175	175	2	28	
176	176	-1	27	
177	177	1	27	
178	178	-1	29	
179	179	-1	27	
180	180	-1	24	
181	181	1	28	
182	182	-1	28	
183	183	-1	26	
184	184	-1	26	
185	185	1	28	
186	186	-1	27	
187	187	1	27	
188	188	2	28	
189	189	-1	28	
190	190	0	24	
191	191	-2	29	
192	192	2	28	
193	193	-1	28	
194	194	2	29	
195	195	-1	27	
196	196	2	28	
197	197	1	28	
198	198	2	29	
199	199	-1	29	
200	200	-1	28	
201	201	1	29	
202	202	-1	28	
203	203	-1	29	
204	204	1	28	
205	205	1	29	
206	206	4	27	
207	207	3	29	
208	208	4	28	
209	209	4	30	
210	210	4	28	
211	211	5	29	
212	212	4	29	
213	213	4	29	
214	214	7	32	
215	215	4	32	
216	216	4	29	
217	217	6	31	
218	218	2	29	
219	219	5	32	
220	220	2	27	
221	221	9	32	
222	222	6	28	
223	223	4	29	
224	224	4	30	
225	225	2	34	
226	226	5	27	
227	227	4	32	
228	228	6	31	
229	229	6	29	
230	230	7	29	
231	231	7	29	
232	232	4	32	
233	233	5	29	
234	234	5	29	
235	235	4	29	
236	236	1	29	
237	237	5	28	
238	238	1	30	
239	239	2	27	
240	240	0	29	
241	241	6	27	
242	242	3	29	
243	243	3	28	
244	244	1	28	
245	245	4	28	
246	246	1	29	
247	247	1	31	
248	248	-1	27	
249	249	2	27	
250	250	1	28	
251	251	2	29	
252	252	0	29	
253	253	1	27	
254	254	4	26	
255	255	0	28	
256	256	2	27	
257	257	-1	24	
258	258	3	28	
259	259	-1	27	
260	260	1	29	
261	261	-3	27	
262	262	3	29	
263	263	1	24	
264	264	1	24	
265	265	-3	27	
266	266	0	24	
267	267	-1	24	
268	268	-1	28	
269	269	-3	27	
270	270	-1	27	
271	271	-1	27	
272	272	1	24	
273	273	-2	29	
274	274	0	24	
275	275	-1	26	
276	276	-1	26	
277	277	-1	24	
278	278	-1	27	
279	279	-1	28	
280	280	-1	24	
281	281	0	29	
282	282	-1	27	
283	283	1	27	
284	284	-1	27	
285	285	-1	26	
286	286	-1	27	
287	287	2	28	
288	288	1	30	
289	289	3	24	
290	290	3	32	
291	291	4	28	
292	292	4	30	
293	293	4	28	
294	294	5	28	
295	295	5	29	
296	296	5	28	
297	297	7	29	
298	298	5	29	
299	299	7	29	
300	300	6	29	
301	301	7	29	
302	302	5	31	
303	303	7	29	
304	304	5	32	
305	305	5	32	
306	306	7	29	
307	307	7	29	
308	308	7	32	
309	309	6	29	
310	310	7	32	
311	311	3	31	
312	312	7	32	
313	313	7	28	
314	314	6	31	
315	315	7	30	
316	316	7	29	
317	317	7	29	
318	318	6	29	
319	319	7	29	
320	320	5	29	
321	321	6	30	
322	322	6	29	
323	323	4	32	
324	324	4	29	
325	325	5	29	
326	326	4	27	
327	327	4	29	
328	328	5	29	
329	329	4	30	
330	330	4	27	
331	331	1	28	
332	332	4	29	
333	333	1	31	
334	334	4	28	
335	335	2	28	
336	336	4	27	
337	337	-1	29	
338	338	3	29	
339	339	1	24	
340	340	-1	27	
341	341	-2	27	
342	342	2	28	
343	343	-1	29	
344	344	1	26	
345	345	-1	28	
346	346	-3	27	
347	347	-1	24	
348	348	-2	27	
349	349	1	24	
350	350	-2	24	
351	351	-2	24	
352	352	-2	26	
353	353	-2	24	
354	354	-3	26	
355	355	-2	26	
356	356	-1	24	
357	357	-2	26	
358	358	-3	26	
359	359	-1	27	
360	360	-4	26	
361	361	-1	27	
362	362	-1	27	
363	363	-1	27	
364	364	-2	26	
365	365	-2	26	
366	366	-1	26	
367	367	0	27	
368	368	1	28	
369	369	3	28	
370	370	2	32	
371	371	1	27	
372	372	-1	31	
373	373	4	28	
374	374	5	28	
375	375	4	29	
376	376	4	29	
377	377	4	29	
378	378	6	29	
379	379	6	27	
380	380	6	29	
381	381	4	29	
382	382	5	29	
383	383	6	29	
384	384	5	29	
385	385	7	32	
386	386	5	31	
387	387	6	29	
388	388	5	30	
389	389	4	30	
390	390	6	29	
391	391	6	32	
392	392	6	32	
393	393	7	30	
394	394	5	30	
395	395	4	29	
396	396	7	32	
397	397	5	31	
398	398	4	29	
399	399	6	32	
400	400	5	29	
401	401	5	29	
402	402	6	31	
403	403	3	28	
404	404	4	31	
405	405	2	28	
406	406	4	29	
407	407	2	28	
408	408	4	29	
409	409	2	29	
410	410	1	28	
411	411	1	27	
412	412	-1	28	
413	413	-1	29	
414	414	2	27	
415	415	2	29	
416	416	-1	24	
417	417	-1	28	
418	418	-1	29	
419	419	-2	29	
420	420	-1	24	
421	421	-1	28	
422	422	-3	26	
423	423	-1	27	
424	424	-1	27	
425	425	-1	27	
426	426	-1	26	
427	427	-3	27	
428	428	-2	26	
429	429	-1	26	
430	430	-1	26	
431	431	-3	29	
432	432	-1	26	
433	433	1	27	
434	434	0	28	
435	435	-1	27	
436	436	0	26	
437	437	-1	28	
438	438	4	29	
439	439	2	28	
440	440	3	28	
441	441	1	29	
442	442	2	29	
443	443	3	28	
444	444	1	29	
445	445	7	28	
446	446	5	28	
447	447	5	31	
448	448	4	28	
449	449	5	28	
450	450	4	32	
451	451	4	28	
452	452	6	29	
453	453	5	29	
454	454	7	29	
455	455	7	29	
456	456	5	32	
457	457	3	27	
458	458	6	29	
459	459	4	29	
460	460	4	32	
461	461	5	27	
462	462	3	29	
463	463	4	29	
464	464	5	28	
465	465	3	30	
466	466	7	27	
467	467	3	29	
468	468	5	29	
469	469	2	28	
470	470	3	30	
471	471	1	28	
472	472	4	29	
473	473	3	29	
474	474	1	29	
475	475	-1	28	
476	476	1	28	
477	477	-1	26	
478	478	4	29	
479	479	-1	26	
480	480	1	27	
481	481	-1	24	
482	482	-1	29	
483	483	-2	27	
484	484	-1	25	
485	485	0	27	
486	486	-2	27	
487	487	-1	29	
488	488	-1	26	
489	489	-1	24	
490	490	-1	24	
491	491	-3	24	
492	492	0	27	
493	493	-1	29	
494	494	1	27	
495	495	0	29	
496	496	-1	27	
497	497	1	31	
498	498	-1	24	
499	499	2	27	
500	500	-1	24	
501	501	2	29	
502	502	1	27	
503	503	2	29	
504	504	-1	27	
505	505	3	29	
506	506	1	29	
507	507	2	29	
508	508	3	29	
509	509	3	26	
510	510	4	29	
511	511	4	29	
512	512	2	32	
513	513	4	29	
514	514	0	29	
515	515	4	29	
516	516	3	29	
517	517	3	29	
518	518	3	30	
519	519	3	27	
520	520	6	31	
521	521	4	28	
522	522	5	28	
523	523	0	29	
524	524	4	29	
525	525	4	29	
526	526	1	29	
527	527	4	29	
528	528	6	29	
529	529	3	28	
530	530	2	29	
531	531	4	29	
532	532	0	29	
533	533	1	29	
534	534	1	29	
535	535	-2	28	
536	536	4	29	
537	537	1	28	
538	538	2	26	
539	539	-1	29	
540	540	-1	27	
541	541	-1	27	
542	542	1	27	
543	543	0	27	
544	544	-1	27	
545	545	1	29	
546	546	-2	26	
547	547	1	24	
548	548	-3	27	
549	549	-1	26	
550	550	-1	28	
551	551	2	29	
552	552	-1	26	
553	553	-1	26	
554	554	-1	24	
555	555	-1	27	
556	556	-1	26	
557	557	1	29	
558	558	1	28	
559	559	-1	29	
560	560	-1	27	
561	561	-1	26	
562	562	1	28	
563	563	-1	24	
564	564	1	29	
565	565	-1	27	
566	566	4	32	
567	567	0	29	
568	568	1	29	
569	569	1	27	
570	570	2	29	
571	571	1	29	
572	572	2	29	
573	573	1	29	
574	574	4	32	
575	575	1	29	
576	576	2	28	
577	577	2	28	
578	578	2	28	
579	579	1	29	
580	580	2	27	
581	581	1	29	
582	582	0	29	
583	583	-1	29	
584	584	-1	26	
585	585	-1	29	
586	586	-1	28	
587	587	4	29	
588	588	3	28	
589	589	1	27	
590	590	1	28	
591	591	-1	27	
592	592	-1	29	
593	593	-1	31	
594	594	-1	26	
595	595	1	29	
596	596	-1	29	
597	597	-1	26	
598	598	1	27	
599	599	0	29	
600	600	-1	27	
601	601	-1	28	
602	602	-2	28	
603	603	-2	27	
604	604	-1	26	
605	605	-1	27	
606	606	-1	26	
607	607	-1	28	
608	608	-1	27	
609	609	-1	26	
610	610	-1	28	
611	611	-1	26	
612	612	1	28	
613	613	-1	27	
614	614	1	29	
615	615	-1	27	
616	616	3	29	
617	617	-1	27	
618	618	1	29	
619	619	2	29	
620	620	1	29	
621	621	-1	29	
622	622	3	32	
623	623	4	28	
624	624	3	29	
625	625	3	28	
626	626	3	28	
627	627	7	29	
628	628	2	29	
629	629	4	27	
630	630	2	29	
631	631	4	29	
632	632	5	32	
633	633	5	28	
634	634	3	31	
635	635	4	29	
636	636	2	30	
637	637	4	29	
638	638	5	32	
639	639	4	29	
640	640	7	29	
641	641	3	32	
642	642	4	32	
643	643	4	29	
644	644	-1	31	
645	645	2	28	
646	646	2	27	
647	647	1	29	
648	648	2	27	
649	649	1	32	
650	650	1	29	
651	651	2	29	
652	652	2	29	
653	653	4	30	
654	654	4	29	
655	655	-1	32	
656	656	1	28	
657	657	0	27	
658	658	1	27	
659	659	-3	28	
660	660	-2	24	
661	661	-2	26	
662	662	1	24	
663	663	-2	27	
664	664	-2	24	
665	665	-1	27	
666	666	-3	24	
667	667	-3	26	
668	668	-3	28	
669	669	-3	26	
670	670	-2	24	
671	671	-3	24	
672	672	-4	24	
673	673	-3	27	
674	674	-3	24	
675	675	-3	23	
676	676	-4	24	
677	677	-3	24	
678	678	-4	27	
679	679	-2	24	
680	680	-3	24	
681	681	-1	24	
682	682	-3	25	
683	683	-1	27	
684	684	-2	24	
685	685	2	26	
686	686	-1	24	
687	687	-1	27	
688	688	-1	27	
689	689	1	29	
690	690	-1	26	
691	691	2	29	
692	692	1	29	
693	693	4	28	
694	694	1	29	
695	695	2	31	
696	696	4	29	
697	697	3	29	
698	698	5	31	
699	699	5	27	
700	700	6	29	
701	701	7	29	
702	702	5	29	
703	703	7	29	
704	704	6	29	
705	705	6	28	
706	706	6	31	
707	707	7	30	
708	708	5	30	
709	709	6	29	
710	710	2	31	
711	711	6	29	
712	712	1	32	
713	713	6	29	
714	714	6	32	
715	715	4	30	
716	716	6	28	
717	717	4	31	
718	718	5	29	
719	719	4	29	
720	720	5	26	
721	721	4	31	
722	722	0	28	
723	723	3	31	
724	724	3	29	
725	725	2	27	
726	726	-1	28	
727	727	1	30	
728	728	2	28	
729	729	4	29	
730	730	-1	29	
731	731	1	28	
732	732	-1	29	
733	733	1	28	
734	734	-2	27	
735	735	1	26	
736	736	-1	27	
737	737	-1	26	
738	738	-3	27	
739	739	-1	28	
740	740	-3	28	
741	741	-1	24	
742	742	-2	24	
743	743	-1	24	
744	744	-2	24	
745	745	-4	26	
746	746	-3	22	
747	747	-2	27	
748	748	-3	23	
749	749	-4	24	
750	750	-1	26	
751	751	-6	23	
752	752	-3	28	
753	753	-3	24	
754	754	-2	27	
755	755	-6	24	
756	756	-1	24	
757	757	-1	26	
758	758	-1	23	
759	759	-3	27	
760	760	1	27	
761	761	1	28	
762	762	-2	27	
763	763	2	26	
764	764	-1	26	
765	765	0	27	
766	766	1	29	
767	767	1	27	
768	768	3	30	
769	769	1	28	
770	770	4	34	
771	771	1	27	
772	772	6	31	
773	773	4	29	
774	774	4	32	
775	775	4	29	
776	776	2	29	
777	777	5	31	
778	778	5	29	
779	779	4	29	
780	780	4	28	
781	781	2	31	
782	782	5	27	
783	783	2	31	
784	784	5	32	
785	785	4	32	
786	786	4	29	
787	787	2	28	
788	788	1	28	
789	789	1	32	
790	790	3	28	
791	791	2	29	
792	792	2	29	
793	793	1	29	
794	794	1	31	
795	795	-1	27	
796	796	3	29	
797	797	-1	28	
798	798	-1	26	
799	799	1	28	
800	800	-1	28	
801	801	-1	27	
802	802	1	28	
803	803	-1	27	
804	804	1	26	
805	805	-1	26	
806	806	-1	24	
807	807	-1	24	
808	808	-4	27	
809	809	-1	27	
810	810	0	24	
811	811	-1	27	
812	812	1	29	
813	813	-2	24	
814	814	2	24	
815	815	-3	24	
816	816	-1	27	
817	817	1	24	
818	818	-3	28	
819	819	1	26	
820	820	-1	24	
821	821	-3	29	
822	822	2	28	
823	823	-5	27	
824	824	-1	24	
825	825	-1	28	
826	826	1	27	
827	827	-1	29	
828	828	1	29	
829	829	1	29	
830	830	-1	28	
831	831	-1	31	
832	832	2	29	
833	833	0	24	
834	834	2	29	
835	835	3	29	
836	836	4	29	
837	837	1	28	
838	838	2	32	
839	839	4	32	
840	840	2	30	
841	841	4	32	
842	842	3	29	
843	843	1	28	
844	844	3	30	
845	845	3	32	
846	846	4	29	
847	847	3	29	
848	848	-1	29	
849	849	1	29	
850	850	-1	29	
851	851	1	29	
852	852	-1	32	
853	853	3	27	
854	854	0	29	
855	855	-1	29	
856	856	-1	28	
857	857	-1	27	
858	858	-1	29	
859	859	0	27	
860	860	-3	26	
861	861	-2	29	
862	862	-1	28	
863	863	-1	28	
864	864	-2	29	
865	865	-6	24	
866	866	-2	27	
867	867	-1	27	
868	868	-1	27	
869	869	-1	25	
870	870	-3	29	
871	871	-3	27	
872	872	-1	26	
873	873	-1	28	
874	874	0	26	
875	875	-3	29	
876	876	-1	28	
877	877	-3	26	
878	878	-1	29	
879	879	-3	27	
880	880	-3	27	
881	881	4	28	
882	882	-1	29	
883	883	-1	29	
884	884	1	26	
885	885	0	27	
886	886	-2	24	
887	887	-3	28	
888	888	1	24	
889	889	-1	29	
890	890	0	30	
891	891	-1	29	
892	892	-1	28	
893	893	-3	29	
894	894	-1	27	
895	895	3	28	
896	896	1	29	
897	897	2	29	
898	898	1	27	
899	899	0	29	
900	900	2	27	
901	901	1	32	
902	902	1	27	
903	903	3	29	
904	904	2	29	
905	905	-1	28	
906	906	2	29	
907	907	1	32	
908	908	3	28	
909	909	1	28	
910	910	3	31	
911	911	-1	29	
912	912	2	29	
913	913	2	29	
914	914	4	27	
915	915	3	29	
916	916	3	29	
917	917	1	24	
918	918	-1	31	
919	919	1	28	
920	920	-3	29	
921	921	-1	26	
922	922	-1	29	
923	923	-1	29	
924	924	-4	28	
925	925	-1	29	
926	926	-1	27	
927	927	-3	29	
928	928	-4	28	
929	929	-4	27	
930	930	-1	27	
931	931	-3	25	
932	932	-4	28	
933	933	-3	27	
934	934	-9	24	
935	935	-2	24	
936	936	-5	24	
937	937	-2	27	
938	938	-6	26	
939	939	-3	24	
940	940	-5	24	
941	941	-1	28	
942	942	-3	26	
943	943	-4	24	
944	944	-3	24	
945	945	-3	26	
946	946	-4	27	
947	947	-1	24	
948	948	-2	27	
949	949	-1	27	
950	950	-5	29	
951	951	-1	27	
952	952	-1	25	
953	953	-1	28	
954	954	-1	29	
955	955	-1	29	
956	956	-1	29	
957	957	1	29	
958	958	-1	29	
959	959	3	29	
960	960	-1	29	
961	961	3	29	
962	962	1	30	
963	963	3	27	
964	964	3	27	
965	965	3	29	
966	966	4	32	
967	967	1	29	
968	968	3	32	
969	969	2	32	
970	970	6	29	
971	971	4	31	
972	972	5	28	
973	973	6	28	
974	974	4	32	
975	975	4	29	
976	976	6	29	
977	977	1	28	
978	978	6	32	
979	979	2	28	
980	980	6	29	
981	981	-1	32	
982	982	3	29	
983	983	1	29	
984	984	3	29	
985	985	-1	29	
986	986	4	29	
987	987	-1	29	
988	988	2	29	
989	989	1	29	
990	990	1	27	
991	991	-1	28	
992	992	-1	28	
993	993	-1	27	
994	994	-1	29	
995	995	-1	27	
996	996	1	28	
997	997	1	26	
998	998	-3	27	
999	999	-6	26	
1000	1000	-1	26	
1001	1001	-5	26	
1002	1002	-4	26	
1003	1003	-3	27	
1004	1004	-4	24	
1005	1005	-5	24	
1006	1006	-1	24	
1007	1007	-4	24	
1008	1008	-4	27	
1009	1009	-4	27	
1010	1010	-3	24	
1011	1011	-4	26	
1012	1012	-1	27	
1013	1013	-5	24	
1014	1014	-1	24	
1015	1015	-1	24	
1016	1016	-1	28	
1017	1017	-4	28	
1018	1018	-1	24	
1019	1019	-1	27	
1020	1020	-3	29	
1021	1021	-2	28	
1022	1022	-1	27	
1023	1023	-1	29	
1024	1024	1	27	
1025	1025	1	29	
1026	1026	2	28	
1027	1027	3	29	
1028	1028	2	27	
1029	1029	4	29	
1030	1030	2	29	
1031	1031	5	28	
1032	1032	4	29	
1033	1033	6	27	
1034	1034	3	31	
1035	1035	7	32	
1036	1036	4	32	
1037	1037	1	28	
1038	1038	2	32	
1039	1039	4	32	
1040	1040	2	29	
1041	1041	4	31	
1042	1042	4	29	
1043	1043	6	31	
1044	1044	4	29	
1045	1045	3	29	
1046	1046	3	29	
1047	1047	4	29	
1048	1048	2	30	
1049	1049	1	29	
1050	1050	1	29	
1051	1051	1	30	
1052	1052	-1	28	
1053	1053	1	32	
1054	1054	-1	29	
1055	1055	0	28	
1056	1056	-1	28	
1057	1057	-1	29	
1058	1058	1	28	
1059	1059	-1	27	
1060	1060	-1	29	
1061	1061	-1	26	
1062	1062	-4	24	
1063	1063	-2	27	
1064	1064	-3	24	
1065	1065	-2	27	
1066	1066	-4	25	
1067	1067	-4	27	
1068	1068	-3	24	
1069	1069	-3	24	
1070	1070	-5	24	
1071	1071	-4	26	
1072	1072	-3	24	
1073	1073	-4	27	
1074	1074	-3	26	
1075	1075	-5	27	
1076	1076	-3	23	
1077	1077	-5	24	
1078	1078	-3	27	
1079	1079	-6	27	
1080	1080	-4	26	
1081	1081	-3	21	
1082	1082	-3	27	
1083	1083	-4	26	
1084	1084	-1	28	
1085	1085	-1	24	
1086	1086	-3	27	
1087	1087	-4	24	
1088	1088	-1	29	
1089	1089	-1	26	
1090	1090	-1	28	
1091	1091	-1	28	
1092	1092	-2	29	
1093	1093	-1	29	
1094	1094	1	27	
1095	1095	0	29	
1096	1096	-1	27	
1097	1097	1	32	
1098	1098	1	27	
1099	1099	2	29	
1100	1100	2	28	
1101	1101	4	32	
1102	1102	2	31	
1103	1103	2	29	
1104	1104	1	29	
1105	1105	4	29	
1106	1106	2	32	
1107	1107	7	29	
1108	1108	1	27	
1109	1109	6	31	
1110	1110	1	29	
1111	1111	2	32	
1112	1112	2	29	
1113	1113	4	29	
1114	1114	0	29	
1115	1115	2	31	
1116	1116	2	29	
1117	1117	2	29	
1118	1118	3	27	
1119	1119	1	28	
1120	1120	-1	29	
1121	1121	-1	28	
1122	1122	1	28	
1123	1123	2	28	
1124	1124	-2	24	
1125	1125	1	29	
1126	1126	-1	27	
1127	1127	-1	29	
1128	1128	-1	29	
1129	1129	-3	29	
1130	1130	-2	26	
1131	1131	-1	26	
1132	1132	-3	27	
1133	1133	-3	27	
1134	1134	-4	26	
1135	1135	-1	27	
1136	1136	-5	24	
1137	1137	-4	26	
1138	1138	-3	24	
1139	1139	-4	24	
1140	1140	-3	24	
1141	1141	-4	24	
1142	1142	-5	27	
1143	1143	-5	24	
1144	1144	-4	24	
1145	1145	-5	24	
1146	1146	-3	24	
1147	1147	-5	24	
1148	1148	-3	27	
1149	1149	-3	24	
1150	1150	-4	24	
1151	1151	-5	26	
1152	1152	-4	27	
1153	1153	-3	24	
1154	1154	-4	27	
1155	1155	-3	26	
1156	1156	-3	24	
1157	1157	-3	27	
1158	1158	-1	29	
1159	1159	-6	27	
1160	1160	-1	27	
1161	1161	-1	29	
1162	1162	-1	25	
1163	1163	-1	28	
1164	1164	-1	27	
1165	1165	-1	30	
1166	1166	-1	29	
1167	1167	1	32	
1168	1168	-1	28	
1169	1169	1	27	
1170	1170	-1	32	
1171	1171	-1	30	
1172	1172	2	27	
1173	1173	1	29	
1174	1174	2	27	
1175	1175	3	29	
1176	1176	1	29	
1177	1177	1	31	
1178	1178	4	31	
1179	1179	4	32	
1180	1180	7	28	
1181	1181	1	31	
1182	1182	3	29	
1183	1183	1	29	
1184	1184	5	32	
1185	1185	2	27	
1186	1186	5	31	
1187	1187	3	27	
1188	1188	2	29	
1189	1189	0	32	
1190	1190	3	29	
1191	1191	-1	29	
1192	1192	2	28	
1193	1193	1	29	
1194	1194	4	28	
1195	1195	-1	29	
1196	1196	-1	30	
1197	1197	0	27	
1198	1198	-1	29	
1199	1199	-1	29	
1200	1200	-1	29	
1201	1201	-1	26	
1202	1202	-1	27	
1203	1203	-1	24	
1204	1204	-1	29	
1205	1205	-4	21	
1206	1206	-3	26	
1207	1207	-1	22	
1208	1208	-4	24	
1209	1209	-2	24	
1210	1210	-1	26	
1211	1211	-4	25	
1212	1212	-5	24	
1213	1213	-4	27	
1214	1214	-4	27	
1215	1215	-3	24	
1216	1216	-1	28	
1217	1217	-4	24	
1218	1218	0	24	
1219	1219	-6	24	
1220	1220	-4	28	
1221	1221	-4	26	
1222	1222	0	28	
1223	1223	-4	26	
1224	1224	-1	26	
1225	1225	-4	27	
1226	1226	-3	28	
1227	1227	-2	28	
1228	1228	-3	26	
1229	1229	-1	29	
1230	1230	-1	28	
1231	1231	-1	26	
1232	1232	-1	31	
1233	1233	-3	29	
1234	1234	-1	32	
1235	1235	0	29	
1236	1236	-1	29	
1237	1237	1	29	
1238	1238	-1	29	
1239	1239	1	29	
1240	1240	0	29	
1241	1241	1	28	
1242	1242	3	29	
1243	1243	4	32	
1244	1244	3	29	
1245	1245	-1	29	
1246	1246	1	27	
1247	1247	2	31	
1248	1248	-1	30	
1249	1249	6	27	
1250	1250	1	30	
1251	1251	3	29	
1252	1252	-1	32	
1253	1253	1	28	
1254	1254	2	31	
1255	1255	2	27	
1256	1256	-1	29	
1257	1257	-1	27	
1258	1258	3	32	
1259	1259	-1	24	
1260	1260	0	27	
1261	1261	-1	28	
1262	1262	-3	29	
1263	1263	-2	28	
1264	1264	-1	28	
1265	1265	-3	27	
1266	1266	-2	29	
1267	1267	-1	26	
1268	1268	-3	29	
1269	1269	-1	24	
1270	1270	-6	24	
1271	1271	-3	27	
1272	1272	-3	28	
1273	1273	-1	28	
1274	1274	-1	28	
1275	1275	-1	29	
1276	1276	-1	27	
1277	1277	-4	26	
1278	1278	-1	24	
1279	1279	-1	25	
1280	1280	-2	28	
1281	1281	-2	24	
1282	1282	-3	26	
1283	1283	-1	27	
1284	1284	-1	27	
1285	1285	-1	26	
1286	1286	-3	28	
1287	1287	-1	27	
1288	1288	-1	27	
1289	1289	-3	24	
1290	1290	-1	26	
1291	1291	-1	27	
1292	1292	-1	28	
1293	1293	-2	28	
1294	1294	-1	29	
1295	1295	-3	27	
1296	1296	2	27	
1297	1297	-1	27	
1298	1298	1	32	
1299	1299	1	27	
1300	1300	1	30	
1301	1301	1	28	
1302	1302	2	29	
1303	1303	-1	29	
1304	1304	1	29	
1305	1305	-1	29	
1306	1306	2	27	
1307	1307	4	31	
1308	1308	3	27	
1309	1309	1	27	
1310	1310	1	29	
1311	1311	-1	29	
1312	1312	2	29	
1313	1313	-1	30	
1314	1314	-1	28	
1315	1315	-1	28	
1316	1316	4	28	
1317	1317	1	31	
1318	1318	-3	29	
1319	1319	-1	29	
1320	1320	-1	28	
1321	1321	-1	29	
1322	1322	-1	27	
1323	1323	-4	29	
1324	1324	-1	27	
1325	1325	-3	28	
1326	1326	-1	30	
1327	1327	-1	27	
1328	1328	-3	28	
1329	1329	-2	27	
1330	1330	-3	26	
1331	1331	-4	24	
1332	1332	-1	27	
1333	1333	-1	29	
1334	1334	-3	26	
1335	1335	-2	28	
1336	1336	-3	29	
1337	1337	-5	24	
1338	1338	-3	26	
1339	1339	-2	24	
1340	1340	-1	29	
1341	1341	-3	26	
1342	1342	-3	27	
1343	1343	-1	26	
1344	1344	-1	24	
1345	1345	-3	27	
1346	1346	-1	27	
1347	1347	-3	27	
1348	1348	-2	27	
