Sample in Buffer	Sample in Window	trig3/data3	trig4/data4	trig5/data5
0	0	-4788	3510	0	
1	1	-1989	6018	0	
2	2	-1989	6018	0	
3	3	-1989	6018	0	
4	4	-1989	6018	0	
5	5	-1989	6018	0	
6	6	-1989	6018	0	
7	7	-1989	6018	0	
8	8	-1989	6018	0	
9	9	-2947	3161	0	
10	10	-2947	3161	0	
11	11	-2947	3161	0	
12	12	-2947	3161	0	
13	13	-2947	3161	0	
14	14	-2947	3161	0	
15	15	-2947	3161	0	
16	16	-2947	3161	0	
17	17	-7098	5482	0	
18	18	-7098	5482	0	
19	19	-7098	5482	0	
20	20	-7098	5482	0	
21	21	-7098	5482	0	
22	22	-7098	5482	0	
23	23	-7098	5482	0	
24	24	-7098	5482	0	
25	25	-5678	1137	0	
26	26	-5678	1137	0	
27	27	-5678	1137	0	
28	28	-5678	1137	0	
29	29	-5678	1137	0	
30	30	-5678	1137	0	
31	31	-5678	1137	0	
32	32	-5678	1137	0	
33	33	-2894	767	0	
34	34	-2894	767	0	
35	35	-2894	767	0	
36	36	-2894	767	0	
37	37	-2894	767	0	
38	38	-2894	767	0	
39	39	-2894	767	0	
40	40	-2894	767	0	
41	41	-7481	4369	0	
42	42	-7481	4369	0	
43	43	-7481	4369	0	
44	44	-7481	4369	0	
45	45	-7481	4369	0	
46	46	-7481	4369	0	
47	47	-7481	4369	0	
48	48	-7481	4369	0	
49	49	-2946	2891	0	
50	50	-2946	2891	0	
51	51	-2946	2891	0	
52	52	-2946	2891	0	
53	53	-2946	2891	0	
54	54	-2946	2891	0	
55	55	-2946	2891	0	
56	56	-2946	2891	0	
57	57	-2432	4772	0	
58	58	-2432	4772	0	
59	59	-2432	4772	0	
60	60	-2432	4772	0	
61	61	-2432	4772	0	
62	62	-2432	4772	0	
63	63	-2432	4772	0	
64	64	-2432	4772	0	
65	65	-3219	2795	0	
66	66	-3219	2795	0	
67	67	-3219	2795	0	
68	68	-3219	2795	0	
69	69	-3219	2795	0	
70	70	-3219	2795	0	
71	71	-3219	2795	0	
72	72	-3219	2795	0	
73	73	-958	1399	0	
74	74	-958	1399	0	
75	75	-958	1399	0	
76	76	-958	1399	0	
77	77	-958	1399	0	
78	78	-958	1399	0	
79	79	-958	1399	0	
80	80	-958	1399	0	
81	81	-2303	2325	0	
82	82	-2303	2325	0	
83	83	-2303	2325	0	
84	84	-2303	2325	0	
85	85	-2303	2325	0	
86	86	-2303	2325	0	
87	87	-2303	2325	0	
88	88	-2303	2325	0	
89	89	-3412	4449	0	
90	90	-3412	4449	0	
91	91	-3412	4449	0	
92	92	-3412	4449	0	
93	93	-3412	4449	0	
94	94	-3412	4449	0	
95	95	-3412	4449	0	
96	96	-3412	4449	0	
97	97	-1473	513	0	
98	98	-1473	513	0	
99	99	-1473	513	0	
100	100	-1473	513	0	
101	101	-1473	513	0	
102	102	-1473	513	0	
103	103	-1473	513	0	
104	104	-1473	513	0	
105	105	-1236	4233	0	
106	106	-1236	4233	0	
107	107	-1236	4233	0	
108	108	-1236	4233	0	
109	109	-1236	4233	0	
110	110	-1236	4233	0	
111	111	-1236	4233	0	
112	112	-1236	4233	0	
113	113	-7846	5013	0	
114	114	-7846	5013	0	
115	115	-7846	5013	0	
116	116	-7846	5013	0	
117	117	-7846	5013	0	
118	118	-7846	5013	0	
119	119	-7846	5013	0	
120	120	-7846	5013	0	
121	121	-2350	509	0	
122	122	-2350	509	0	
123	123	-2350	509	0	
124	124	-2350	509	0	
125	125	-2350	509	0	
126	126	-2350	509	0	
127	127	-2350	509	0	
128	128	-2350	509	0	
129	129	-1444	2167	0	
130	130	-1444	2167	0	
131	131	-1444	2167	0	
132	132	-1444	2167	0	
133	133	-1444	2167	0	
134	134	-1444	2167	0	
135	135	-1444	2167	0	
136	136	-1444	2167	0	
137	137	-2831	6689	0	
138	138	-2831	6689	0	
139	139	-2831	6689	0	
140	140	-2831	6689	0	
141	141	-2831	6689	0	
142	142	-2831	6689	0	
143	143	-2831	6689	0	
144	144	-2831	6689	0	
145	145	-3556	3469	0	
146	146	-3556	3469	0	
147	147	-3556	3469	0	
148	148	-3556	3469	0	
149	149	-3556	3469	0	
150	150	-3556	3469	0	
151	151	-3556	3469	0	
152	152	-3556	3469	0	
153	153	387	5781	0	
154	154	387	5781	0	
155	155	387	5781	0	
156	156	387	5781	0	
157	157	387	5781	0	
158	158	387	5781	0	
159	159	387	5781	0	
160	160	387	5781	0	
161	161	-6734	4166	0	
162	162	-6734	4166	0	
163	163	-6734	4166	0	
164	164	-6734	4166	0	
165	165	-6734	4166	0	
166	166	-6734	4166	0	
167	167	-6734	4166	0	
168	168	-6734	4166	0	
169	169	3640	3044	0	
170	170	3640	3044	0	
171	171	3640	3044	0	
172	172	3640	3044	0	
173	173	3640	3044	0	
174	174	3640	3044	0	
175	175	3640	3044	0	
176	176	3640	3044	0	
177	177	-404	5131	0	
178	178	-404	5131	0	
179	179	-404	5131	0	
180	180	-404	5131	0	
181	181	-404	5131	0	
182	182	-404	5131	0	
183	183	-404	5131	0	
184	184	-404	5131	0	
185	185	-80	2337	0	
186	186	-80	2337	0	
187	187	-80	2337	0	
188	188	-80	2337	0	
189	189	-80	2337	0	
190	190	-80	2337	0	
191	191	-80	2337	0	
192	192	-80	2337	0	
193	193	971	6198	0	
194	194	971	6198	0	
195	195	971	6198	0	
196	196	971	6198	0	
197	197	971	6198	0	
198	198	971	6198	0	
199	199	971	6198	0	
200	200	971	6198	0	
201	201	-661	-208	0	
202	202	-661	-208	0	
203	203	-661	-208	0	
204	204	-661	-208	0	
205	205	-661	-208	0	
206	206	-661	-208	0	
207	207	-661	-208	0	
208	208	-661	-208	0	
209	209	-3065	3574	0	
210	210	-3065	3574	0	
211	211	-3065	3574	0	
212	212	-3065	3574	0	
213	213	-3065	3574	0	
214	214	-3065	3574	0	
215	215	-3065	3574	0	
216	216	-3065	3574	0	
217	217	-1057	1389	0	
218	218	-1057	1389	0	
219	219	-1057	1389	0	
220	220	-1057	1389	0	
221	221	-1057	1389	0	
222	222	-1057	1389	0	
223	223	-1057	1389	0	
224	224	-1057	1389	0	
225	225	-4814	1426	0	
226	226	-4814	1426	0	
227	227	-4814	1426	0	
228	228	-4814	1426	0	
229	229	-4814	1426	0	
230	230	-4814	1426	0	
231	231	-4814	1426	0	
232	232	-4814	1426	0	
233	233	-189	-473	0	
234	234	-189	-473	0	
235	235	-189	-473	0	
236	236	-189	-473	0	
237	237	-189	-473	0	
238	238	-189	-473	0	
239	239	-189	-473	0	
240	240	-189	-473	0	
241	241	317	5284	0	
242	242	317	5284	0	
243	243	317	5284	0	
244	244	317	5284	0	
245	245	317	5284	0	
246	246	317	5284	0	
247	247	317	5284	0	
248	248	317	5284	0	
249	249	4263	6186	0	
250	250	4263	6186	0	
251	251	4263	6186	0	
252	252	4263	6186	0	
253	253	4263	6186	0	
254	254	4263	6186	0	
255	255	4263	6186	0	
256	256	4263	6186	0	
257	257	1043	5593	0	
258	258	1043	5593	0	
259	259	1043	5593	0	
260	260	1043	5593	0	
261	261	1043	5593	0	
262	262	1043	5593	0	
263	263	1043	5593	0	
264	264	1043	5593	0	
265	265	1025	2087	0	
266	266	1025	2087	0	
267	267	1025	2087	0	
268	268	1025	2087	0	
269	269	1025	2087	0	
270	270	1025	2087	0	
271	271	1025	2087	0	
272	272	1025	2087	0	
273	273	3884	5251	0	
274	274	3884	5251	0	
275	275	3884	5251	0	
276	276	3884	5251	0	
277	277	3884	5251	0	
278	278	3884	5251	0	
279	279	3884	5251	0	
280	280	3884	5251	0	
281	281	685	8374	0	
282	282	685	8374	0	
283	283	685	8374	0	
284	284	685	8374	0	
285	285	685	8374	0	
286	286	685	8374	0	
287	287	685	8374	0	
288	288	685	8374	0	
289	289	3782	2468	0	
290	290	3782	2468	0	
291	291	3782	2468	0	
292	292	3782	2468	0	
293	293	3782	2468	0	
294	294	3782	2468	0	
295	295	3782	2468	0	
296	296	3782	2468	0	
297	297	-1024	4534	0	
298	298	-1024	4534	0	
299	299	-1024	4534	0	
300	300	-1024	4534	0	
301	301	-1024	4534	0	
302	302	-1024	4534	0	
303	303	-1024	4534	0	
304	304	-1024	4534	0	
305	305	2	6273	0	
306	306	2	6273	0	
307	307	2	6273	0	
308	308	2	6273	0	
309	309	2	6273	0	
310	310	2	6273	0	
311	311	2	6273	0	
312	312	2	6273	0	
313	313	1871	2813	0	
314	314	1871	2813	0	
315	315	1871	2813	0	
316	316	1871	2813	0	
317	317	1871	2813	0	
318	318	1871	2813	0	
319	319	1871	2813	0	
320	320	1871	2813	0	
321	321	723	371	0	
322	322	723	371	0	
323	323	723	371	0	
324	324	723	371	0	
325	325	723	371	0	
326	326	723	371	0	
327	327	723	371	0	
328	328	723	371	0	
329	329	-682	-3062	0	
330	330	-682	-3062	0	
331	331	-682	-3062	0	
332	332	-682	-3062	0	
333	333	-682	-3062	0	
334	334	-682	-3062	0	
335	335	-682	-3062	0	
336	336	-682	-3062	0	
337	337	-2961	1639	0	
338	338	-2961	1639	0	
339	339	-2961	1639	0	
340	340	-2961	1639	0	
341	341	-2961	1639	0	
342	342	-2961	1639	0	
343	343	-2961	1639	0	
344	344	-2961	1639	0	
345	345	-3005	-2000	0	
346	346	-3005	-2000	0	
347	347	-3005	-2000	0	
348	348	-3005	-2000	0	
349	349	-3005	-2000	0	
350	350	-3005	-2000	0	
351	351	-3005	-2000	0	
352	352	-3005	-2000	0	
353	353	-1853	3395	0	
354	354	-1853	3395	0	
355	355	-1853	3395	0	
356	356	-1853	3395	0	
357	357	-1853	3395	0	
358	358	-1853	3395	0	
359	359	-1853	3395	0	
360	360	-1853	3395	0	
361	361	-4092	3800	0	
362	362	-4092	3800	0	
363	363	-4092	3800	0	
364	364	-4092	3800	0	
365	365	-4092	3800	0	
366	366	-4092	3800	0	
367	367	-4092	3800	0	
368	368	-4092	3800	0	
369	369	-7365	1363	0	
370	370	-7365	1363	0	
371	371	-7365	1363	0	
372	372	-7365	1363	0	
373	373	-7365	1363	0	
374	374	-7365	1363	0	
375	375	-7365	1363	0	
376	376	-7365	1363	0	
377	377	-1142	646	0	
378	378	-1142	646	0	
379	379	-1142	646	0	
380	380	-1142	646	0	
381	381	-1142	646	0	
382	382	-1142	646	0	
383	383	-1142	646	0	
384	384	-1142	646	0	
385	385	-7042	-210	0	
386	386	-7042	-210	0	
387	387	-7042	-210	0	
388	388	-7042	-210	0	
389	389	-7042	-210	0	
390	390	-7042	-210	0	
391	391	-7042	-210	0	
392	392	-7042	-210	0	
393	393	-3552	4230	0	
394	394	-3552	4230	0	
395	395	-3552	4230	0	
396	396	-3552	4230	0	
397	397	-3552	4230	0	
398	398	-3552	4230	0	
399	399	-3552	4230	0	
400	400	-3552	4230	0	
401	401	-195	5705	0	
402	402	-195	5705	0	
403	403	-195	5705	0	
404	404	-195	5705	0	
405	405	-195	5705	0	
406	406	-195	5705	0	
407	407	-195	5705	0	
408	408	-195	5705	0	
409	409	-1587	2069	0	
410	410	-1587	2069	0	
411	411	-1587	2069	0	
412	412	-1587	2069	0	
413	413	-1587	2069	0	
414	414	-1587	2069	0	
415	415	-1587	2069	0	
416	416	-1587	2069	0	
417	417	-1600	8882	0	
418	418	-1600	8882	0	
419	419	-1600	8882	0	
420	420	-1600	8882	0	
421	421	-1600	8882	0	
422	422	-1600	8882	0	
423	423	-1600	8882	0	
424	424	-1600	8882	0	
425	425	-3603	1732	0	
426	426	-3603	1732	0	
427	427	-3603	1732	0	
428	428	-3603	1732	0	
429	429	-3603	1732	0	
430	430	-3603	1732	0	
431	431	-3603	1732	0	
432	432	-3603	1732	0	
433	433	-139	4293	0	
434	434	-139	4293	0	
435	435	-139	4293	0	
436	436	-139	4293	0	
437	437	-139	4293	0	
438	438	-139	4293	0	
439	439	-139	4293	0	
440	440	-139	4293	0	
441	441	-2392	8370	0	
442	442	-2392	8370	0	
443	443	-2392	8370	0	
444	444	-2392	8370	0	
445	445	-2392	8370	0	
446	446	-2392	8370	0	
447	447	-2392	8370	0	
448	448	-2392	8370	0	
449	449	987	2931	0	
450	450	987	2931	0	
451	451	987	2931	0	
452	452	987	2931	0	
453	453	987	2931	0	
454	454	987	2931	0	
455	455	987	2931	0	
456	456	987	2931	0	
457	457	-238	756	0	
458	458	-238	756	0	
459	459	-238	756	0	
460	460	-238	756	0	
461	461	-238	756	0	
462	462	-238	756	0	
463	463	-238	756	0	
464	464	-238	756	0	
465	465	404	394	0	
466	466	404	394	0	
467	467	404	394	0	
468	468	404	394	0	
469	469	404	394	0	
470	470	404	394	0	
471	471	404	394	0	
472	472	404	394	0	
473	473	-3755	2921	0	
474	474	-3755	2921	0	
475	475	-3755	2921	0	
476	476	-3755	2921	0	
477	477	-3755	2921	0	
478	478	-3755	2921	0	
479	479	-3755	2921	0	
480	480	-3755	2921	0	
481	481	-215	8449	0	
482	482	-215	8449	0	
483	483	-215	8449	0	
484	484	-215	8449	0	
485	485	-215	8449	0	
486	486	-215	8449	0	
487	487	-215	8449	0	
488	488	-215	8449	0	
489	489	-418	2989	0	
490	490	-418	2989	0	
491	491	-418	2989	0	
492	492	-418	2989	0	
493	493	-418	2989	0	
494	494	-418	2989	0	
495	495	-418	2989	0	
496	496	-418	2989	0	
497	497	-3088	3211	0	
498	498	-3088	3211	0	
499	499	-3088	3211	0	
500	500	-3088	3211	0	
501	501	-3088	3211	0	
502	502	-3088	3211	0	
503	503	-3088	3211	0	
504	504	-3088	3211	0	
505	505	-3666	3126	0	
506	506	-3666	3126	0	
507	507	-3666	3126	0	
508	508	-3666	3126	0	
509	509	-3666	3126	0	
510	510	-3666	3126	0	
511	511	-3666	3126	0	
512	512	-3666	3126	0	
513	513	-4684	2702	0	
514	514	-4684	2702	0	
515	515	-4684	2702	0	
516	516	-4684	2702	0	
517	517	-4684	2702	0	
518	518	-4684	2702	0	
519	519	-4684	2702	0	
520	520	-4684	2702	0	
521	521	-4372	4993	0	
522	522	-4372	4993	0	
523	523	-4372	4993	0	
524	524	-4372	4993	0	
525	525	-4372	4993	0	
526	526	-4372	4993	0	
527	527	-4372	4993	0	
528	528	-4372	4993	0	
529	529	-2998	4811	0	
530	530	-2998	4811	0	
531	531	-2998	4811	0	
532	532	-2998	4811	0	
533	533	-2998	4811	0	
534	534	-2998	4811	0	
535	535	-2998	4811	0	
536	536	-2998	4811	0	
537	537	-2606	6127	0	
538	538	-2606	6127	0	
539	539	-2606	6127	0	
540	540	-2606	6127	0	
541	541	-2606	6127	0	
542	542	-2606	6127	0	
543	543	-2606	6127	0	
544	544	-2606	6127	0	
545	545	2273	6066	0	
546	546	2273	6066	0	
547	547	2273	6066	0	
548	548	2273	6066	0	
549	549	2273	6066	0	
550	550	2273	6066	0	
551	551	2273	6066	0	
552	552	2273	6066	0	
553	553	-1313	4903	0	
554	554	-1313	4903	0	
555	555	-1313	4903	0	
556	556	-1313	4903	0	
557	557	-1313	4903	0	
558	558	-1313	4903	0	
559	559	-1313	4903	0	
560	560	-1313	4903	0	
561	561	-5727	1759	0	
562	562	-5727	1759	0	
563	563	-5727	1759	0	
564	564	-5727	1759	0	
565	565	-5727	1759	0	
566	566	-5727	1759	0	
567	567	-5727	1759	0	
568	568	-5727	1759	0	
569	569	-3479	3011	0	
570	570	-3479	3011	0	
571	571	-3479	3011	0	
572	572	-3479	3011	0	
573	573	-3479	3011	0	
574	574	-3479	3011	0	
575	575	-3479	3011	0	
576	576	-3479	3011	0	
577	577	3423	389	0	
578	578	3423	389	0	
579	579	3423	389	0	
580	580	3423	389	0	
581	581	3423	389	0	
582	582	3423	389	0	
583	583	3423	389	0	
584	584	3423	389	0	
585	585	-2218	152	0	
586	586	-2218	152	0	
587	587	-2218	152	0	
588	588	-2218	152	0	
589	589	-2218	152	0	
590	590	-2218	152	0	
591	591	-2218	152	0	
592	592	-2218	152	0	
593	593	-4431	3806	0	
594	594	-4431	3806	0	
595	595	-4431	3806	0	
596	596	-4431	3806	0	
597	597	-4431	3806	0	
598	598	-4431	3806	0	
599	599	-4431	3806	0	
600	600	-4431	3806	0	
601	601	461	2177	0	
602	602	461	2177	0	
603	603	461	2177	0	
604	604	461	2177	0	
605	605	461	2177	0	
606	606	461	2177	0	
607	607	461	2177	0	
608	608	461	2177	0	
609	609	-3411	1928	0	
610	610	-3411	1928	0	
611	611	-3411	1928	0	
612	612	-3411	1928	0	
613	613	-3411	1928	0	
614	614	-3411	1928	0	
615	615	-3411	1928	0	
616	616	-3411	1928	0	
617	617	-3593	-294	0	
618	618	-3593	-294	0	
619	619	-3593	-294	0	
620	620	-3593	-294	0	
621	621	-3593	-294	0	
622	622	-3593	-294	0	
623	623	-3593	-294	0	
624	624	-3593	-294	0	
625	625	-2923	5567	0	
626	626	-2923	5567	0	
627	627	-2923	5567	0	
628	628	-2923	5567	0	
629	629	-2923	5567	0	
630	630	-2923	5567	0	
631	631	-2923	5567	0	
632	632	-2923	5567	0	
633	633	-5497	3731	0	
634	634	-5497	3731	0	
635	635	-5497	3731	0	
636	636	-5497	3731	0	
637	637	-5497	3731	0	
638	638	-5497	3731	0	
639	639	-5497	3731	0	
640	640	-5497	3731	0	
641	641	-1686	6141	0	
642	642	-1686	6141	0	
643	643	-1686	6141	0	
644	644	-1686	6141	0	
645	645	-1686	6141	0	
646	646	-1686	6141	0	
647	647	-1686	6141	0	
648	648	-1686	6141	0	
649	649	-8869	3672	0	
650	650	-8869	3672	0	
651	651	-8869	3672	0	
652	652	-8869	3672	0	
653	653	-8869	3672	0	
654	654	-8869	3672	0	
655	655	-8869	3672	0	
656	656	-8869	3672	0	
657	657	-1570	3646	0	
658	658	-1570	3646	0	
659	659	-1570	3646	0	
660	660	-1570	3646	0	
661	661	-1570	3646	0	
662	662	-1570	3646	0	
663	663	-1570	3646	0	
664	664	-1570	3646	0	
665	665	-6506	4508	0	
666	666	-6506	4508	0	
667	667	-6506	4508	0	
668	668	-6506	4508	0	
669	669	-6506	4508	0	
670	670	-6506	4508	0	
671	671	-6506	4508	0	
672	672	-6506	4508	0	
673	673	-5330	5472	0	
674	674	-5330	5472	0	
675	675	-5330	5472	0	
676	676	-5330	5472	0	
677	677	-5330	5472	0	
678	678	-5330	5472	0	
679	679	-5330	5472	0	
680	680	-5330	5472	0	
681	681	-615	1422	0	
682	682	-615	1422	0	
683	683	-615	1422	0	
684	684	-615	1422	0	
685	685	-615	1422	0	
686	686	-615	1422	0	
687	687	-615	1422	0	
688	688	-615	1422	0	
689	689	-121	6695	0	
690	690	-121	6695	0	
691	691	-121	6695	0	
692	692	-121	6695	0	
693	693	-121	6695	0	
694	694	-121	6695	0	
695	695	-121	6695	0	
696	696	-121	6695	0	
697	697	-754	38	0	
698	698	-754	38	0	
699	699	-754	38	0	
700	700	-754	38	0	
701	701	-754	38	0	
702	702	-754	38	0	
703	703	-754	38	0	
704	704	-754	38	0	
705	705	-813	4486	0	
706	706	-813	4486	0	
707	707	-813	4486	0	
708	708	-813	4486	0	
709	709	-813	4486	0	
710	710	-813	4486	0	
711	711	-813	4486	0	
712	712	-813	4486	0	
713	713	-1633	1698	0	
714	714	-1633	1698	0	
715	715	-1633	1698	0	
716	716	-1633	1698	0	
717	717	-1633	1698	0	
718	718	-1633	1698	0	
719	719	-1633	1698	0	
720	720	-1633	1698	0	
721	721	-44	3554	0	
722	722	-44	3554	0	
723	723	-44	3554	0	
724	724	-44	3554	0	
725	725	-44	3554	0	
726	726	-44	3554	0	
727	727	-44	3554	0	
728	728	-44	3554	0	
729	729	-4528	4631	0	
730	730	-4528	4631	0	
731	731	-4528	4631	0	
732	732	-4528	4631	0	
733	733	-4528	4631	0	
734	734	-4528	4631	0	
735	735	-4528	4631	0	
736	736	-4528	4631	0	
737	737	-97	3770	0	
738	738	-97	3770	0	
739	739	-97	3770	0	
740	740	-97	3770	0	
741	741	-97	3770	0	
742	742	-97	3770	0	
743	743	-97	3770	0	
744	744	-97	3770	0	
745	745	-262	-896	0	
746	746	-262	-896	0	
747	747	-262	-896	0	
748	748	-262	-896	0	
749	749	-262	-896	0	
750	750	-262	-896	0	
751	751	-262	-896	0	
752	752	-262	-896	0	
753	753	-2705	-1562	0	
754	754	-2705	-1562	0	
755	755	-2705	-1562	0	
756	756	-2705	-1562	0	
757	757	-2705	-1562	0	
758	758	-2705	-1562	0	
759	759	-2705	-1562	0	
760	760	-2705	-1562	0	
761	761	3669	-1417	0	
762	762	3669	-1417	0	
763	763	3669	-1417	0	
764	764	3669	-1417	0	
765	765	3669	-1417	0	
766	766	3669	-1417	0	
767	767	3669	-1417	0	
768	768	3669	-1417	0	
769	769	-3007	-3470	0	
770	770	-3007	-3470	0	
771	771	-3007	-3470	0	
772	772	-3007	-3470	0	
773	773	-3007	-3470	0	
774	774	-3007	-3470	0	
775	775	-3007	-3470	0	
776	776	-3007	-3470	0	
777	777	-3200	-1069	0	
778	778	-3200	-1069	0	
779	779	-3200	-1069	0	
780	780	-3200	-1069	0	
781	781	-3200	-1069	0	
782	782	-3200	-1069	0	
783	783	-3200	-1069	0	
784	784	-3200	-1069	0	
785	785	-2555	364	0	
786	786	-2555	364	0	
787	787	-2555	364	0	
788	788	-2555	364	0	
789	789	-2555	364	0	
790	790	-2555	364	0	
791	791	-2555	364	0	
792	792	-2555	364	0	
793	793	-3656	3796	0	
794	794	-3656	3796	0	
795	795	-3656	3796	0	
796	796	-3656	3796	0	
797	797	-3656	3796	0	
798	798	-3656	3796	0	
799	799	-3656	3796	0	
800	800	-3656	3796	0	
801	801	-2474	3623	0	
802	802	-2474	3623	0	
803	803	-2474	3623	0	
804	804	-2474	3623	0	
805	805	-2474	3623	0	
806	806	-2474	3623	0	
807	807	-2474	3623	0	
808	808	-2474	3623	0	
809	809	-3446	1132	0	
810	810	-3446	1132	0	
811	811	-3446	1132	0	
812	812	-3446	1132	0	
813	813	-3446	1132	0	
814	814	-3446	1132	0	
815	815	-3446	1132	0	
816	816	-3446	1132	0	
817	817	-7797	3626	0	
818	818	-7797	3626	0	
819	819	-7797	3626	0	
820	820	-7797	3626	0	
821	821	-7797	3626	0	
822	822	-7797	3626	0	
823	823	-7797	3626	0	
824	824	-7797	3626	0	
825	825	-5353	6387	0	
826	826	-5353	6387	0	
827	827	-5353	6387	0	
828	828	-5353	6387	0	
829	829	-5353	6387	0	
830	830	-5353	6387	0	
831	831	-5353	6387	0	
832	832	-5353	6387	0	
833	833	-2323	3288	0	
834	834	-2323	3288	0	
835	835	-2323	3288	0	
836	836	-2323	3288	0	
837	837	-2323	3288	0	
838	838	-2323	3288	0	
839	839	-2323	3288	0	
840	840	-2323	3288	0	
841	841	-4060	1663	0	
842	842	-4060	1663	0	
843	843	-4060	1663	0	
844	844	-4060	1663	0	
845	845	-4060	1663	0	
846	846	-4060	1663	0	
847	847	-4060	1663	0	
848	848	-4060	1663	0	
849	849	-5057	2247	0	
850	850	-5057	2247	0	
851	851	-5057	2247	0	
852	852	-5057	2247	0	
853	853	-5057	2247	0	
854	854	-5057	2247	0	
855	855	-5057	2247	0	
856	856	-5057	2247	0	
857	857	-3237	-1806	0	
858	858	-3237	-1806	0	
859	859	-3237	-1806	0	
860	860	-3237	-1806	0	
861	861	-3237	-1806	0	
862	862	-3237	-1806	0	
863	863	-3237	-1806	0	
864	864	-3237	-1806	0	
865	865	-1149	-1908	0	
866	866	-1149	-1908	0	
867	867	-1149	-1908	0	
868	868	-1149	-1908	0	
869	869	-1149	-1908	0	
870	870	-1149	-1908	0	
871	871	-1149	-1908	0	
872	872	-1149	-1908	0	
873	873	-2382	515	0	
874	874	-2382	515	0	
875	875	-2382	515	0	
876	876	-2382	515	0	
877	877	-2382	515	0	
878	878	-2382	515	0	
879	879	-2382	515	0	
880	880	-2382	515	0	
881	881	-5982	-388	0	
882	882	-5982	-388	0	
883	883	-5982	-388	0	
884	884	-5982	-388	0	
885	885	-5982	-388	0	
886	886	-5982	-388	0	
887	887	-5982	-388	0	
888	888	-5982	-388	0	
889	889	-5254	-1730	0	
890	890	-5254	-1730	0	
891	891	-5254	-1730	0	
892	892	-5254	-1730	0	
893	893	-5254	-1730	0	
894	894	-5254	-1730	0	
895	895	-5254	-1730	0	
896	896	-5254	-1730	0	
897	897	245	-1290	0	
898	898	245	-1290	0	
899	899	245	-1290	0	
900	900	245	-1290	0	
901	901	245	-1290	0	
902	902	245	-1290	0	
903	903	245	-1290	0	
904	904	245	-1290	0	
905	905	-3147	1499	0	
906	906	-3147	1499	0	
907	907	-3147	1499	0	
908	908	-3147	1499	0	
909	909	-3147	1499	0	
910	910	-3147	1499	0	
911	911	-3147	1499	0	
912	912	-3147	1499	0	
913	913	-7199	1533	0	
914	914	-7199	1533	0	
915	915	-7199	1533	0	
916	916	-7199	1533	0	
917	917	-7199	1533	0	
918	918	-7199	1533	0	
919	919	-7199	1533	0	
920	920	-7199	1533	0	
921	921	-1537	2950	0	
922	922	-1537	2950	0	
923	923	-1537	2950	0	
924	924	-1537	2950	0	
925	925	-1537	2950	0	
926	926	-1537	2950	0	
927	927	-1537	2950	0	
928	928	-1537	2950	0	
929	929	-3730	4714	0	
930	930	-3730	4714	0	
931	931	-3730	4714	0	
932	932	-3730	4714	0	
933	933	-3730	4714	0	
934	934	-3730	4714	0	
935	935	-3730	4714	0	
