Sample in Buffer	Sample in Window	trig0/data0	trig1/data1
0	0	87	50	
1	1	84	52	
2	2	87	52	
3	3	88	51	
4	4	85	53	
5	5	87	54	
6	6	85	52	
7	7	87	52	
8	8	86	54	
9	9	87	53	
10	10	87	52	
11	11	85	52	
12	12	85	52	
13	13	88	52	
14	14	85	52	
15	15	87	54	
16	16	84	52	
17	17	87	54	
18	18	83	54	
19	19	87	53	
20	20	85	55	
21	21	85	52	
22	22	84	50	
23	23	84	54	
24	24	86	52	
25	25	84	53	
26	26	87	52	
27	27	85	54	
28	28	85	51	
29	29	86	54	
30	30	84	52	
31	31	82	52	
32	32	85	54	
33	33	85	54	
34	34	86	54	
35	35	86	54	
36	36	84	51	
37	37	85	54	
38	38	84	54	
39	39	85	54	
40	40	85	55	
41	41	85	55	
42	42	84	54	
43	43	86	54	
44	44	83	56	
45	45	84	52	
46	46	82	54	
47	47	84	55	
48	48	83	52	
49	49	84	55	
50	50	85	52	
51	51	85	53	
52	52	85	51	
53	53	87	55	
54	54	84	52	
55	55	84	52	
56	56	85	54	
57	57	84	54	
58	58	82	54	
59	59	84	54	
60	60	84	56	
61	61	85	52	
62	62	81	56	
63	63	87	54	
64	64	83	55	
65	65	84	51	
66	66	84	56	
67	67	85	52	
68	68	84	55	
69	69	84	53	
70	70	82	54	
71	71	84	56	
72	72	84	52	
73	73	84	53	
74	74	83	54	
75	75	82	55	
76	76	84	54	
77	77	83	54	
78	78	85	55	
79	79	84	53	
80	80	82	54	
81	81	82	54	
82	82	83	54	
83	83	83	54	
84	84	84	54	
85	85	83	54	
86	86	84	55	
87	87	84	53	
88	88	84	55	
89	89	85	53	
90	90	85	54	
91	91	84	54	
92	92	86	54	
93	93	85	54	
94	94	85	54	
95	95	85	54	
96	96	85	54	
97	97	85	55	
98	98	84	52	
99	99	84	55	
100	100	86	53	
101	101	86	54	
102	102	84	54	
103	103	85	55	
104	104	86	54	
105	105	86	55	
106	106	85	53	
107	107	86	54	
108	108	87	52	
109	109	85	55	
110	110	85	53	
111	111	84	54	
112	112	87	52	
113	113	85	54	
114	114	87	53	
115	115	85	54	
116	116	82	54	
117	117	87	57	
118	118	84	55	
119	119	85	55	
120	120	85	54	
121	121	85	54	
122	122	83	54	
123	123	85	52	
124	124	85	54	
125	125	85	55	
126	126	85	51	
127	127	84	54	
128	128	85	54	
129	129	85	55	
130	130	86	52	
131	131	84	54	
132	132	86	54	
133	133	85	54	
134	134	85	54	
135	135	84	52	
136	136	87	53	
137	137	84	54	
138	138	85	52	
139	139	85	53	
140	140	86	54	
141	141	85	53	
142	142	85	52	
143	143	85	52	
144	144	86	53	
145	145	85	54	
146	146	87	50	
147	147	87	54	
148	148	87	53	
149	149	85	52	
150	150	88	50	
151	151	85	51	
152	152	89	52	
153	153	85	54	
154	154	88	50	
155	155	87	51	
156	156	87	51	
157	157	87	52	
158	158	89	52	
159	159	88	52	
160	160	89	52	
161	161	86	52	
162	162	87	52	
163	163	89	53	
164	164	87	50	
165	165	88	54	
166	166	86	52	
167	167	89	50	
168	168	85	50	
169	169	89	52	
170	170	90	54	
171	171	87	52	
172	172	86	51	
173	173	89	51	
174	174	87	50	
175	175	85	52	
176	176	89	52	
177	177	87	51	
178	178	86	54	
179	179	89	52	
180	180	88	50	
181	181	87	51	
182	182	91	50	
183	183	88	50	
184	184	87	54	
185	185	85	49	
186	186	89	50	
187	187	89	50	
188	188	87	52	
189	189	87	53	
190	190	87	52	
191	191	90	52	
192	192	89	50	
193	193	90	50	
194	194	89	50	
195	195	90	52	
196	196	87	49	
197	197	89	49	
198	198	90	49	
199	199	87	50	
200	200	87	52	
201	201	91	49	
202	202	88	54	
203	203	90	52	
204	204	88	50	
205	205	92	50	
206	206	89	52	
207	207	90	49	
208	208	87	53	
209	209	92	47	
210	210	85	52	
211	211	91	50	
212	212	91	49	
213	213	92	51	
214	214	89	51	
215	215	89	50	
216	216	89	50	
217	217	89	49	
218	218	89	49	
219	219	91	52	
220	220	89	46	
221	221	91	50	
222	222	87	48	
223	223	89	49	
224	224	92	48	
225	225	92	54	
226	226	91	49	
227	227	92	48	
228	228	91	49	
229	229	94	50	
230	230	90	48	
231	231	91	50	
232	232	89	49	
233	233	92	48	
234	234	89	48	
235	235	90	50	
236	236	91	47	
237	237	90	47	
238	238	93	48	
239	239	90	48	
240	240	92	49	
241	241	89	49	
242	242	92	47	
243	243	90	48	
244	244	94	50	
245	245	91	49	
246	246	92	49	
247	247	89	52	
248	248	91	49	
249	249	91	50	
250	250	94	47	
251	251	92	49	
252	252	89	48	
253	253	91	46	
254	254	91	47	
255	255	94	49	
256	256	92	49	
257	257	94	47	
258	258	91	48	
259	259	89	47	
260	260	92	47	
261	261	89	47	
262	262	94	47	
263	263	90	48	
264	264	91	47	
265	265	93	48	
266	266	93	47	
267	267	92	47	
268	268	91	52	
269	269	91	48	
270	270	91	50	
271	271	92	48	
272	272	91	50	
273	273	91	47	
274	274	90	48	
275	275	90	48	
276	276	88	48	
277	277	90	49	
278	278	90	51	
279	279	90	48	
280	280	89	51	
281	281	89	49	
282	282	92	50	
283	283	89	48	
284	284	90	49	
285	285	89	48	
286	286	85	48	
287	287	89	49	
288	288	89	52	
289	289	90	50	
290	290	89	50	
291	291	89	47	
292	292	91	50	
293	293	90	50	
294	294	91	48	
295	295	89	48	
296	296	87	52	
297	297	85	50	
298	298	91	50	
299	299	90	48	
300	300	87	48	
301	301	89	49	
302	302	91	49	
303	303	90	50	
304	304	91	49	
305	305	89	50	
306	306	90	50	
307	307	91	50	
308	308	90	52	
309	309	89	48	
310	310	90	51	
311	311	90	49	
312	312	89	49	
313	313	90	50	
314	314	87	49	
315	315	92	53	
316	316	87	49	
317	317	92	52	
318	318	89	48	
319	319	90	51	
320	320	87	52	
321	321	91	51	
322	322	90	49	
323	323	91	50	
324	324	89	49	
325	325	91	52	
326	326	91	52	
327	327	89	52	
328	328	90	49	
329	329	90	49	
330	330	86	49	
331	331	91	51	
332	332	89	50	
333	333	90	50	
334	334	89	51	
335	335	93	50	
336	336	90	49	
337	337	88	50	
338	338	87	51	
339	339	89	49	
340	340	89	52	
341	341	91	51	
342	342	90	52	
343	343	90	50	
344	344	90	51	
345	345	89	51	
346	346	89	50	
347	347	90	51	
348	348	90	49	
349	349	90	52	
350	350	87	50	
351	351	91	51	
352	352	89	47	
353	353	90	50	
354	354	89	47	
355	355	92	51	
356	356	92	49	
357	357	90	50	
358	358	89	47	
359	359	91	50	
360	360	92	47	
361	361	92	47	
362	362	89	45	
363	363	92	48	
364	364	94	48	
365	365	92	49	
366	366	92	46	
367	367	93	46	
368	368	91	46	
369	369	91	47	
370	370	91	47	
371	371	92	47	
372	372	90	47	
373	373	91	48	
374	374	91	48	
375	375	92	48	
376	376	90	45	
377	377	92	46	
378	378	90	50	
379	379	93	46	
380	380	92	47	
381	381	90	47	
382	382	94	49	
383	383	90	47	
384	384	92	47	
385	385	92	49	
386	386	91	47	
387	387	89	46	
388	388	91	47	
389	389	91	50	
390	390	92	47	
391	391	92	46	
392	392	90	46	
393	393	92	48	
394	394	92	51	
395	395	92	46	
396	396	89	51	
397	397	92	46	
398	398	91	46	
399	399	92	48	
400	400	92	47	
401	401	91	47	
402	402	91	49	
403	403	91	50	
404	404	89	48	
405	405	93	45	
406	406	91	48	
407	407	91	50	
408	408	90	49	
409	409	94	48	
410	410	90	47	
411	411	89	47	
412	412	92	48	
413	413	89	47	
414	414	93	49	
415	415	89	46	
416	416	91	50	
417	417	91	48	
418	418	91	47	
419	419	91	47	
420	420	92	46	
421	421	89	49	
422	422	91	46	
423	423	90	48	
424	424	92	48	
425	425	90	49	
426	426	91	48	
427	427	90	47	
428	428	91	46	
429	429	91	52	
430	430	90	45	
431	431	90	50	
432	432	91	48	
433	433	89	50	
434	434	92	50	
435	435	89	48	
436	436	92	48	
437	437	91	46	
438	438	90	48	
439	439	91	49	
440	440	92	47	
441	441	90	48	
442	442	90	49	
443	443	89	46	
444	444	92	50	
445	445	91	48	
446	446	89	47	
447	447	92	49	
448	448	89	46	
449	449	93	49	
450	450	91	49	
451	451	89	50	
452	452	92	48	
453	453	91	47	
454	454	91	50	
455	455	91	50	
456	456	93	48	
457	457	91	47	
458	458	92	49	
459	459	90	48	
460	460	90	48	
461	461	90	48	
462	462	90	46	
463	463	90	50	
464	464	92	50	
465	465	90	48	
466	466	90	46	
467	467	90	52	
468	468	91	50	
469	469	88	48	
470	470	90	48	
471	471	91	50	
472	472	90	49	
473	473	89	49	
474	474	90	47	
475	475	91	48	
476	476	89	48	
477	477	89	50	
478	478	90	50	
479	479	92	48	
480	480	87	50	
481	481	94	51	
482	482	88	47	
483	483	92	48	
484	484	89	49	
485	485	92	48	
486	486	87	47	
487	487	91	49	
488	488	89	46	
489	489	89	51	
490	490	86	48	
491	491	90	51	
492	492	90	47	
493	493	89	50	
494	494	88	48	
495	495	91	50	
496	496	91	47	
497	497	91	50	
498	498	90	48	
499	499	91	52	
500	500	92	49	
501	501	93	47	
502	502	90	49	
503	503	89	48	
504	504	94	47	
505	505	89	52	
506	506	90	47	
507	507	89	50	
508	508	92	47	
509	509	89	48	
510	510	91	49	
511	511	89	49	
512	512	91	46	
513	513	92	49	
514	514	91	47	
515	515	89	48	
516	516	92	48	
517	517	89	50	
518	518	92	47	
519	519	89	50	
520	520	92	46	
521	521	92	48	
522	522	91	47	
523	523	90	50	
524	524	90	46	
525	525	90	50	
526	526	91	50	
527	527	90	46	
528	528	92	47	
529	529	89	47	
530	530	92	47	
531	531	91	48	
532	532	92	44	
533	533	91	47	
534	534	91	46	
535	535	89	47	
536	536	92	47	
537	537	90	47	
538	538	93	46	
539	539	91	47	
540	540	93	47	
541	541	93	46	
542	542	91	46	
543	543	92	50	
544	544	93	46	
545	545	93	46	
546	546	92	46	
547	547	92	48	
548	548	91	44	
549	549	94	47	
550	550	90	48	
551	551	94	47	
552	552	92	46	
553	553	93	46	
554	554	94	49	
555	555	91	48	
556	556	93	47	
557	557	90	46	
558	558	93	47	
559	559	91	46	
560	560	93	47	
561	561	90	46	
562	562	93	47	
563	563	92	46	
564	564	92	46	
565	565	91	44	
566	566	93	48	
567	567	93	46	
568	568	93	49	
569	569	92	46	
570	570	90	46	
571	571	93	47	
572	572	91	46	
573	573	93	47	
574	574	93	47	
575	575	94	46	
576	576	90	48	
577	577	92	46	
578	578	93	49	
579	579	94	46	
580	580	93	48	
581	581	93	48	
582	582	92	46	
583	583	93	46	
584	584	91	47	
585	585	90	46	
586	586	95	48	
587	587	91	46	
588	588	90	45	
589	589	94	47	
590	590	92	46	
591	591	91	46	
592	592	92	46	
593	593	93	47	
594	594	92	47	
595	595	92	46	
596	596	91	43	
597	597	89	47	
598	598	91	47	
599	599	92	44	
600	600	92	46	
601	601	92	46	
602	602	91	45	
603	603	93	47	
604	604	93	46	
605	605	94	47	
606	606	92	47	
607	607	91	47	
608	608	92	46	
609	609	94	44	
610	610	92	46	
611	611	92	47	
612	612	91	44	
613	613	93	45	
614	614	91	46	
615	615	91	45	
616	616	92	47	
617	617	91	46	
618	618	91	44	
619	619	91	46	
620	620	94	47	
621	621	93	47	
622	622	91	44	
623	623	91	47	
624	624	94	46	
625	625	94	48	
626	626	93	43	
627	627	95	49	
628	628	93	46	
629	629	91	46	
630	630	92	48	
631	631	91	47	
632	632	91	47	
633	633	92	48	
634	634	93	46	
635	635	89	46	
636	636	92	47	
637	637	92	44	
638	638	93	46	
639	639	92	47	
640	640	90	47	
641	641	92	47	
642	642	92	46	
643	643	91	50	
644	644	91	45	
645	645	92	47	
646	646	91	46	
647	647	91	46	
648	648	91	46	
649	649	92	47	
650	650	93	46	
651	651	91	47	
652	652	91	47	
653	653	93	48	
654	654	89	46	
655	655	91	48	
656	656	93	47	
657	657	91	48	
658	658	89	48	
659	659	91	47	
660	660	91	47	
661	661	92	48	
662	662	92	47	
663	663	90	47	
664	664	87	49	
665	665	91	54	
666	666	98	49	
667	667	81	46	
668	668	73	62	
669	669	113	65	
670	670	116	21	
671	671	-55	64	
672	672	-283	367	
673	673	-356	774	
674	674	-277	970	
675	675	-229	926	
676	676	-260	866	
677	677	-316	901	
678	678	-293	903	
679	679	-258	894	
680	680	-252	901	
681	681	-217	862	
682	682	-314	863	
683	683	-303	968	
684	684	17	871	
685	685	516	245	
686	686	678	-514	
687	687	502	-921	
688	688	341	-847	
689	689	382	-669	
690	690	474	-702	
691	691	300	-793	
692	692	36	-697	
693	693	-274	-108	
694	694	-443	731	
695	695	-176	1092	
696	696	-110	1047	
697	697	-254	930	
698	698	-293	950	
699	699	-191	1077	
700	700	54	939	
701	701	594	135	
702	702	519	-594	
703	703	346	-1011	
704	704	155	-891	
705	705	243	-734	
706	706	314	-774	
707	707	127	-837	
708	708	-98	-690	
709	709	-361	14	
710	710	-323	867	
711	711	41	1133	
712	712	82	1090	
713	713	60	884	
714	714	-71	994	
715	715	-55	1180	
716	716	267	919	
717	717	567	62	
718	718	393	-688	
719	719	129	-1057	
720	720	-9	-920	
721	721	98	-762	
722	722	165	-820	
723	723	-15	-855	
724	724	-194	-671	
725	725	-293	14	
726	726	-186	910	
727	727	155	1172	
728	728	204	1103	
729	729	7	1036	
730	730	-30	1063	
731	731	93	1158	
732	732	308	941	
733	733	587	0	
734	734	317	-701	
735	735	50	-1077	
736	736	-75	-910	
737	737	47	-770	
738	738	113	-825	
739	739	-58	-855	
740	740	-219	-664	
741	741	-292	28	
742	742	-165	919	
743	743	185	1175	
744	744	238	1105	
745	745	41	1041	
746	746	1	1076	
747	747	128	1155	
748	748	341	939	
749	749	574	-6	
750	750	292	-711	
751	751	18	-1085	
752	752	-93	-910	
753	753	27	-775	
754	754	91	-833	
755	755	-75	-857	
756	756	-231	-659	
757	757	-290	37	
758	758	-143	928	
759	759	213	1175	
760	760	274	1085	
761	761	175	907	
762	762	65	1019	
763	763	67	1249	
764	764	373	912	
765	765	570	-4	
766	766	291	-720	
767	767	4	-1082	
768	768	-105	-912	
769	769	11	-778	
770	770	78	-834	
771	771	-84	-856	
772	772	-241	-658	
773	773	-291	38	
774	774	-142	928	
775	775	215	1179	
776	776	261	1103	
777	777	54	1045	
778	778	13	1084	
779	779	91	1225	
780	780	328	965	
781	781	600	-40	
782	782	276	-696	
783	783	28	-1098	
784	784	-102	-905	
785	785	26	-781	
786	786	93	-832	
787	787	-71	-856	
788	788	-255	-628	
789	789	-527	317	
790	790	-245	1046	
791	791	299	1069	
792	792	191	1157	
793	793	199	854	
794	794	20	1045	
795	795	83	1190	
796	796	354	912	
797	797	563	15	
798	798	323	-721	
799	799	35	-1073	
800	800	-68	-920	
801	801	45	-767	
802	802	119	-833	
803	803	-49	-852	
804	804	-209	-672	
805	805	-293	20	
806	806	-181	906	
807	807	151	1172	
808	808	218	1084	
809	809	119	901	
810	810	6	1007	
811	811	7	1201	
812	812	313	913	
813	813	561	44	
814	814	358	-698	
815	815	95	-1070	
816	816	-27	-913	
817	817	89	-767	
818	818	158	-821	
819	819	-15	-858	
820	820	-189	-674	
821	821	-294	3	
822	822	-209	899	
823	823	117	1170	
824	824	163	1107	
825	825	-28	1026	
826	826	-75	1057	
827	827	39	1148	
828	828	258	949	
829	829	588	29	
830	830	372	-678	
831	831	131	-1068	
832	832	-9	-909	
833	833	108	-766	
834	834	173	-819	
835	835	-2	-857	
836	836	-177	-674	
837	837	-293	3	
838	838	-206	897	
839	839	124	1174	
840	840	175	1102	
841	841	-16	1032	
842	842	-53	1062	
843	843	56	1157	
844	844	284	948	
845	845	580	23	
846	846	343	-688	
847	847	88	-1080	
848	848	-46	-912	
849	849	68	-773	
850	850	138	-826	
851	851	-41	-856	
852	852	-209	-666	
853	853	-294	26	
854	854	-172	918	
855	855	171	1179	
856	856	222	1106	
857	857	13	1044	
858	858	-49	1105	
859	859	87	1172	
860	860	325	927	
861	861	577	15	
862	862	332	-703	
863	863	65	-1078	
864	864	-52	-916	
865	865	60	-771	
866	866	135	-826	
867	867	-34	-857	
868	868	-210	-664	
869	869	-354	88	
870	870	-205	940	
871	871	188	1142	
872	872	189	1113	
873	873	86	930	
874	874	-28	1039	
875	875	98	1116	
876	876	158	1072	
877	877	-115	736	
878	878	-505	163	
879	879	-810	-136	
880	880	-770	-151	
881	881	-645	-33	
882	882	-690	22	
883	883	-805	-64	
884	884	-541	-303	
885	885	133	-399	
886	886	849	-149	
887	887	1089	186	
888	888	973	240	
889	889	898	117	
890	890	917	131	
891	891	961	156	
892	892	962	124	
893	893	910	143	
894	894	949	126	
895	895	964	115	
896	896	941	134	
897	897	919	151	
898	898	979	80	
899	899	999	60	
900	900	747	335	
901	901	315	824	
902	902	62	1107	
903	903	100	1094	
904	904	209	1012	
905	905	170	1005	
906	906	70	1063	
907	907	172	1107	
908	908	254	1070	
909	909	-39	771	
910	910	-489	224	
911	911	-814	-48	
912	912	-762	-49	
913	913	-647	42	
914	914	-710	86	
915	915	-766	75	
916	916	-519	-183	
917	917	-139	-659	
918	918	54	-981	
919	919	26	-960	
920	920	-49	-851	
921	921	-41	-861	
922	922	-60	-829	
923	923	-34	-869	
924	924	-3	-915	
925	925	-46	-848	
926	926	-17	-895	
927	927	-15	-897	
928	928	-28	-880	
929	929	-45	-851	
930	930	3	-922	
931	931	26	-943	
932	932	-173	-646	
933	933	-538	-165	
934	934	-767	151	
935	935	-758	136	
936	936	-689	5	
937	937	-757	152	
938	938	-751	201	
939	939	-796	103	
940	940	-642	-147	
941	941	68	-451	
942	942	756	-197	
943	943	1108	18	
944	944	959	150	
945	945	895	6	
946	946	874	78	
947	947	946	63	
948	948	962	0	
949	949	893	56	
950	950	935	5	
951	951	938	9	
952	952	955	23	
953	953	927	-6	
954	954	902	-30	
955	955	972	38	
956	956	997	54	
957	957	691	-210	
958	958	160	-680	
959	959	-155	-979	
960	960	-148	-962	
961	961	-25	-835	
962	962	-17	-832	
963	963	-116	-939	
964	964	-123	-945	
965	965	173	-628	
966	966	712	-178	
967	967	1044	79	
968	968	1004	72	
969	969	875	-2	
970	970	938	-51	
971	971	994	-39	
972	972	767	261	
973	973	398	780	
974	974	188	1122	
975	975	213	1112	
976	976	306	1014	
977	977	190	1110	
978	978	146	1108	
979	979	239	1150	
980	980	431	921	
981	981	578	-64	
982	982	190	-745	
983	983	-94	-1094	
984	984	-174	-884	
985	985	-67	-789	
986	986	-36	-876	
987	987	-125	-815	
988	988	-251	-564	
989	989	-575	-76	
990	990	-820	263	
991	991	-704	94	
992	992	-695	85	
993	993	-674	42	
994	994	-767	176	
995	995	-727	124	
996	996	-684	64	
997	997	-702	90	
998	998	-683	81	
999	999	-713	111	
1000	1000	-702	54	
1001	1001	-665	65	
1002	1002	-684	158	
1003	1003	-774	124	
1004	1004	-587	-193	
1005	1005	21	-426	
1006	1006	770	-275	
1007	1007	1074	7	
1008	1008	990	98	
1009	1009	866	-25	
1010	1010	834	8	
1011	1011	972	70	
1012	1012	1016	23	
1013	1013	651	-182	
1014	1014	152	-691	
1015	1015	-149	-989	
1016	1016	-145	-938	
1017	1017	-62	-806	
1018	1018	-31	-901	
1019	1019	-52	-963	
1020	1020	-220	-634	
1021	1021	-542	-109	
1022	1022	-754	209	
1023	1023	-735	174	
1024	1024	-684	46	
1025	1025	-674	95	
1026	1026	-714	214	
1027	1027	-759	105	
1028	1028	-742	22	
1029	1029	-453	332	
1030	1030	43	816	
1031	1031	361	1131	
1032	1032	346	1087	
1033	1033	237	991	
1034	1034	252	1010	
1035	1035	292	1048	
1036	1036	284	1029	
1037	1037	277	1007	
1038	1038	292	1025	
1039	1039	283	1046	
1040	1040	303	1017	
1041	1041	317	991	
1042	1042	272	1065	
1043	1043	256	1089	
1044	1044	449	771	
1045	1045	783	217	
1046	1046	983	-124	
1047	1047	978	-106	
1048	1048	908	44	
1049	1049	879	34	
1050	1050	893	-47	
1051	1051	906	112	
1052	1052	788	361	
1053	1053	132	619	
1054	1054	-583	471	
1055	1055	-799	20	
1056	1056	-764	40	
1057	1057	-636	102	
1058	1058	-740	214	
1059	1059	-741	114	
1060	1060	-695	84	
1061	1061	-742	189	
1062	1062	-705	126	
1063	1063	-683	81	
1064	1064	-723	103	
1065	1065	-683	109	
1066	1066	-663	153	
1067	1067	-729	79	
1068	1068	-755	67	
1069	1069	-436	343	
1070	1070	70	828	
1071	1071	409	1131	
1072	1072	404	1071	
1073	1073	303	946	
1074	1074	277	1042	
1075	1075	305	1103	
1076	1076	479	758	
1077	1077	779	175	
1078	1078	977	-162	
1079	1079	964	-151	
1080	1080	884	-19	
1081	1081	879	-12	
1082	1082	924	-90	
1083	1083	948	-136	
1084	1084	783	174	
1085	1085	461	812	
1086	1086	317	1118	
1087	1087	343	1102	
1088	1088	423	998	
1089	1089	333	1107	
1090	1090	272	1155	
1091	1091	381	1154	
1092	1092	556	856	
1093	1093	545	-108	
1094	1094	71	-776	
1095	1095	-241	-1067	
1096	1096	-294	-855	
1097	1097	-176	-776	
1098	1098	-158	-868	
1099	1099	-237	-789	
1100	1100	-334	-517	
1101	1101	-574	24	
1102	1102	-762	409	
1103	1103	-669	229	
1104	1104	-660	223	
1105	1105	-647	179	
1106	1106	-708	338	
1107	1107	-679	280	
1108	1108	-649	226	
1109	1109	-659	252	
1110	1110	-651	241	
1111	1111	-655	276	
1112	1112	-646	262	
1113	1113	-651	279	
1114	1114	-644	274	
1115	1115	-645	287	
1116	1116	-636	284	
1117	1117	-638	285	
1118	1118	-633	291	
1119	1119	-642	320	
1120	1120	-629	287	
1121	1121	-618	256	
1122	1122	-644	347	
1123	1123	-655	371	
1124	1124	-541	6	
1125	1125	-357	-570	
1126	1126	-257	-960	
1127	1127	-262	-944	
1128	1128	-309	-787	
1129	1129	-304	-770	
1130	1130	-281	-842	
1131	1131	-309	-732	
1132	1132	-383	-483	
1133	1133	-574	90	
1134	1134	-693	494	
1135	1135	-635	296	
1136	1136	-659	266	
1137	1137	-613	229	
1138	1138	-649	396	
1139	1139	-706	270	
1140	1140	-712	199	
1141	1141	-407	534	
1142	1142	172	864	
1143	1143	569	1053	
1144	1144	507	1070	
1145	1145	395	962	
1146	1146	399	995	
1147	1147	447	1019	
1148	1148	425	1008	
1149	1149	412	997	
1150	1150	421	998	
1151	1151	427	1005	
1152	1152	449	1020	
1153	1153	416	998	
1154	1154	388	975	
1155	1155	468	1036	
1156	1156	495	1052	
1157	1157	148	800	
1158	1158	-406	387	
1159	1159	-780	158	
1160	1160	-754	135	
1161	1161	-597	209	
1162	1162	-625	284	
1163	1163	-761	210	
1164	1164	-605	-129	
1165	1165	-22	-407	
1166	1166	719	-334	
1167	1167	1060	-90	
1168	1168	977	41	
1169	1169	828	-50	
1170	1170	855	-110	
1171	1171	917	78	
1172	1172	804	319	
1173	1173	159	610	
1174	1174	-540	527	
1175	1175	-784	79	
1176	1176	-768	84	
1177	1177	-607	159	
1178	1178	-677	304	
1179	1179	-756	150	
1180	1180	-734	85	
1181	1181	-412	391	
1182	1182	110	826	
1183	1183	441	1127	
1184	1184	440	1058	
1185	1185	337	947	
1186	1186	318	1039	
1187	1187	348	1102	
1188	1188	505	742	
1189	1189	786	142	
1190	1190	961	-193	
1191	1191	945	-168	
1192	1192	901	-56	
1193	1193	881	-85	
1194	1194	845	-98	
1195	1195	940	-76	
1196	1196	981	-103	
1197	1197	613	-271	
1198	1198	20	-711	
1199	1199	-315	-943	
1200	1200	-287	-922	
1201	1201	-183	-832	
1202	1202	-204	-849	
1203	1203	-247	-880	
1204	1204	-238	-866	
1205	1205	-225	-856	
1206	1206	-235	-858	
1207	1207	-241	-860	
1208	1208	-266	-874	
1209	1209	-241	-849	
1210	1210	-210	-829	
1211	1211	-295	-884	
1212	1212	-326	-895	
1213	1213	-12	-665	
1214	1214	610	-305	
1215	1215	996	-132	
1216	1216	975	-118	
