Sample in Buffer	Sample in Window	trig0/data0	trig1/data1
0	0	-262	-181	
1	1	-260	-183	
2	2	-261	-180	
3	3	-262	-180	
4	4	-259	-180	
5	5	-258	-184	
6	6	-259	-184	
7	7	-258	-184	
8	8	-258	-188	
9	9	-257	-186	
10	10	-258	-188	
11	11	-258	-189	
12	12	-256	-188	
13	13	-258	-190	
14	14	-257	-188	
15	15	-256	-191	
16	16	-256	-190	
17	17	-256	-190	
18	18	-255	-191	
19	19	-254	-190	
20	20	-256	-191	
21	21	-254	-192	
22	22	-255	-192	
23	23	-254	-192	
24	24	-255	-192	
25	25	-252	-192	
26	26	-254	-190	
27	27	-255	-192	
28	28	-254	-192	
29	29	-251	-191	
30	30	-255	-189	
31	31	-254	-192	
32	32	-258	-194	
33	33	-254	-191	
34	34	-254	-192	
35	35	-254	-189	
36	36	-256	-192	
37	37	-254	-189	
38	38	-255	-190	
39	39	-256	-189	
40	40	-255	-189	
41	41	-256	-188	
42	42	-257	-186	
43	43	-258	-185	
44	44	-257	-188	
45	45	-255	-184	
46	46	-256	-186	
47	47	-258	-186	
48	48	-258	-184	
49	49	-259	-183	
50	50	-258	-185	
51	51	-259	-184	
52	52	-257	-184	
53	53	-258	-183	
54	54	-256	-184	
55	55	-258	-184	
56	56	-258	-183	
57	57	-259	-184	
58	58	-257	-183	
59	59	-259	-184	
60	60	-259	-184	
61	61	-256	-186	
62	62	-260	-185	
63	63	-258	-185	
64	64	-255	-184	
65	65	-259	-186	
66	66	-258	-186	
67	67	-256	-185	
68	68	-256	-186	
69	69	-256	-190	
70	70	-255	-186	
71	71	-258	-188	
72	72	-254	-186	
73	73	-256	-189	
74	74	-256	-188	
75	75	-256	-185	
76	76	-258	-189	
77	77	-254	-190	
78	78	-255	-190	
79	79	-254	-191	
80	80	-254	-191	
81	81	-252	-190	
82	82	-254	-191	
83	83	-252	-191	
84	84	-251	-192	
85	85	-251	-192	
86	86	-253	-191	
87	87	-255	-191	
88	88	-254	-190	
89	89	-255	-191	
90	90	-251	-190	
91	91	-256	-189	
92	92	-252	-192	
93	93	-256	-191	
94	94	-253	-190	
95	95	-254	-192	
96	96	-257	-189	
97	97	-255	-192	
98	98	-254	-186	
99	99	-256	-188	
100	100	-255	-188	
101	101	-256	-186	
102	102	-257	-188	
103	103	-258	-186	
104	104	-258	-185	
105	105	-258	-186	
106	106	-256	-186	
107	107	-256	-185	
108	108	-256	-184	
109	109	-261	-183	
110	110	-258	-183	
111	111	-259	-182	
112	112	-259	-183	
113	113	-260	-181	
114	114	-259	-181	
115	115	-259	-181	
116	116	-262	-180	
117	117	-258	-181	
118	118	-262	-181	
119	119	-259	-184	
120	120	-262	-180	
121	121	-258	-184	
122	122	-259	-184	
123	123	-258	-184	
124	124	-259	-181	
125	125	-260	-183	
126	126	-259	-181	
127	127	-259	-183	
128	128	-260	-183	
129	129	-258	-184	
130	130	-260	-181	
131	131	-258	-185	
132	132	-258	-185	
133	133	-258	-184	
134	134	-258	-188	
135	135	-259	-185	
136	136	-259	-186	
137	137	-260	-183	
138	138	-258	-186	
139	139	-259	-185	
140	140	-258	-184	
141	141	-259	-185	
142	142	-258	-184	
143	143	-256	-186	
144	144	-259	-185	
145	145	-256	-189	
146	146	-257	-186	
147	147	-258	-188	
148	148	-258	-189	
149	149	-255	-189	
150	150	-256	-188	
151	151	-256	-190	
152	152	-256	-189	
153	153	-258	-190	
154	154	-258	-190	
155	155	-254	-188	
156	156	-254	-189	
157	157	-256	-191	
158	158	-255	-192	
159	159	-256	-188	
160	160	-254	-191	
161	161	-254	-190	
162	162	-253	-192	
163	163	-254	-191	
164	164	-255	-192	
165	165	-252	-192	
166	166	-253	-189	
167	167	-254	-190	
168	168	-258	-188	
169	169	-256	-189	
170	170	-253	-188	
171	171	-256	-191	
172	172	-256	-189	
173	173	-256	-188	
174	174	-255	-186	
175	175	-258	-185	
176	176	-256	-185	
177	177	-259	-186	
178	178	-260	-184	
179	179	-261	-183	
180	180	-261	-182	
181	181	-259	-182	
182	182	-262	-179	
183	183	-260	-181	
184	184	-259	-179	
185	185	-260	-181	
186	186	-262	-181	
187	187	-259	-179	
188	188	-263	-180	
189	189	-264	-181	
190	190	-263	-176	
191	191	-263	-180	
192	192	-264	-179	
193	193	-260	-180	
194	194	-262	-181	
195	195	-260	-184	
196	196	-263	-181	
197	197	-260	-183	
198	198	-260	-182	
199	199	-260	-185	
200	200	-260	-184	
201	201	-261	-184	
202	202	-260	-186	
203	203	-258	-183	
204	204	-260	-185	
205	205	-259	-184	
206	206	-258	-186	
207	207	-258	-185	
208	208	-255	-188	
209	209	-258	-186	
210	210	-256	-186	
211	211	-255	-190	
212	212	-258	-187	
213	213	-258	-188	
214	214	-254	-189	
215	215	-256	-188	
216	216	-255	-188	
217	217	-255	-191	
218	218	-254	-190	
219	219	-254	-190	
220	220	-255	-190	
221	221	-255	-192	
222	222	-251	-193	
223	223	-253	-196	
224	224	-252	-193	
225	225	-252	-196	
226	226	-254	-192	
227	227	-252	-193	
228	228	-250	-194	
229	229	-250	-194	
230	230	-251	-192	
231	231	-252	-192	
232	232	-252	-194	
233	233	-252	-192	
234	234	-252	-192	
235	235	-251	-190	
236	236	-254	-189	
237	237	-254	-189	
238	238	-256	-189	
239	239	-254	-190	
240	240	-254	-192	
241	241	-255	-188	
242	242	-252	-188	
243	243	-256	-188	
244	244	-254	-189	
245	245	-256	-188	
246	246	-256	-188	
247	247	-258	-185	
248	248	-256	-186	
249	249	-257	-185	
250	250	-256	-185	
251	251	-258	-184	
252	252	-256	-184	
253	253	-259	-183	
254	254	-261	-182	
255	255	-258	-184	
256	256	-262	-181	
257	257	-260	-184	
258	258	-260	-180	
259	259	-259	-184	
260	260	-261	-182	
261	261	-262	-179	
262	262	-264	-176	
263	263	-260	-178	
264	264	-262	-177	
265	265	-264	-179	
266	266	-264	-178	
267	267	-260	-179	
268	268	-262	-179	
269	269	-262	-180	
270	270	-263	-180	
271	271	-262	-181	
272	272	-260	-180	
273	273	-264	-182	
274	274	-264	-178	
275	275	-264	-179	
276	276	-264	-178	
277	277	-264	-180	
278	278	-263	-179	
279	279	-262	-180	
280	280	-261	-182	
281	281	-260	-181	
282	282	-263	-180	
283	283	-262	-183	
284	284	-262	-179	
285	285	-258	-183	
286	286	-260	-184	
287	287	-258	-185	
288	288	-256	-186	
289	289	-257	-185	
290	290	-258	-186	
291	291	-258	-186	
292	292	-258	-188	
293	293	-258	-185	
294	294	-256	-188	
295	295	-256	-188	
296	296	-257	-189	
297	297	-255	-188	
298	298	-254	-189	
299	299	-257	-188	
300	300	-258	-188	
301	301	-257	-188	
302	302	-258	-188	
303	303	-253	-190	
304	304	-256	-188	
305	305	-255	-192	
306	306	-258	-186	
307	307	-256	-188	
308	308	-258	-186	
309	309	-259	-185	
310	310	-258	-184	
311	311	-260	-185	
312	312	-258	-184	
313	313	-260	-188	
314	314	-259	-183	
315	315	-260	-182	
316	316	-259	-184	
317	317	-262	-181	
318	318	-260	-181	
319	319	-264	-181	
320	320	-260	-182	
321	321	-262	-181	
322	322	-262	-180	
323	323	-263	-180	
324	324	-262	-181	
325	325	-262	-177	
326	326	-264	-180	
327	327	-263	-178	
328	328	-264	-181	
329	329	-264	-180	
330	330	-264	-180	
331	331	-264	-179	
332	332	-266	-181	
333	333	-264	-177	
334	334	-264	-179	
335	335	-264	-179	
336	336	-264	-179	
337	337	-264	-179	
338	338	-266	-179	
339	339	-264	-177	
340	340	-264	-179	
341	341	-265	-179	
342	342	-264	-179	
343	343	-264	-179	
344	344	-262	-180	
345	345	-262	-179	
346	346	-264	-180	
347	347	-266	-179	
348	348	-264	-179	
349	349	-264	-179	
350	350	-263	-180	
351	351	-265	-177	
352	352	-262	-179	
353	353	-264	-180	
354	354	-262	-184	
355	355	-264	-179	
356	356	-263	-180	
357	357	-263	-180	
358	358	-264	-179	
359	359	-264	-180	
360	360	-262	-181	
361	361	-262	-179	
362	362	-265	-181	
363	363	-264	-179	
364	364	-266	-181	
365	365	-263	-179	
366	366	-264	-180	
367	367	-266	-179	
368	368	-265	-180	
369	369	-264	-176	
370	370	-265	-177	
371	371	-267	-176	
372	372	-266	-179	
373	373	-265	-175	
374	374	-266	-176	
375	375	-266	-176	
376	376	-267	-178	
377	377	-266	-176	
378	378	-267	-177	
379	379	-266	-176	
380	380	-266	-179	
381	381	-266	-177	
382	382	-266	-181	
383	383	-266	-175	
384	384	-265	-176	
385	385	-265	-179	
386	386	-262	-180	
387	387	-266	-180	
388	388	-263	-180	
389	389	-265	-179	
390	390	-264	-178	
391	391	-265	-180	
392	392	-264	-179	
393	393	-263	-180	
394	394	-262	-181	
395	395	-262	-180	
396	396	-266	-179	
397	397	-262	-180	
398	398	-266	-180	
399	399	-265	-182	
400	400	-264	-179	
401	401	-264	-179	
402	402	-264	-179	
403	403	-267	-180	
404	404	-262	-179	
405	405	-264	-181	
406	406	-264	-176	
407	407	-264	-183	
408	408	-267	-179	
409	409	-266	-180	
410	410	-264	-181	
411	411	-262	-180	
412	412	-264	-181	
413	413	-262	-181	
414	414	-264	-179	
415	415	-266	-181	
416	416	-266	-180	
417	417	-266	-179	
418	418	-263	-176	
419	419	-266	-176	
420	420	-266	-177	
421	421	-264	-177	
422	422	-264	-179	
423	423	-266	-176	
424	424	-267	-180	
425	425	-263	-179	
426	426	-266	-179	
427	427	-263	-179	
428	428	-268	-179	
429	429	-264	-179	
430	430	-266	-181	
431	431	-264	-180	
432	432	-266	-180	
433	433	-268	-177	
434	434	-264	-179	
435	435	-267	-179	
436	436	-266	-173	
437	437	-266	-175	
438	438	-263	-173	
439	439	-265	-176	
440	440	-268	-173	
441	441	-267	-174	
442	442	-268	-176	
443	443	-267	-175	
444	444	-268	-174	
445	445	-266	-176	
446	446	-267	-177	
447	447	-266	-176	
448	448	-266	-176	
449	449	-264	-177	
450	450	-266	-176	
451	451	-264	-177	
452	452	-266	-176	
453	453	-266	-176	
454	454	-264	-177	
455	455	-266	-177	
456	456	-266	-176	
457	457	-266	-176	
458	458	-263	-179	
459	459	-266	-180	
460	460	-265	-179	
461	461	-266	-179	
462	462	-265	-175	
463	463	-266	-177	
464	464	-265	-177	
465	465	-268	-176	
466	466	-266	-176	
467	467	-266	-176	
468	468	-265	-176	
469	469	-265	-177	
470	470	-264	-181	
471	471	-266	-179	
472	472	-265	-179	
473	473	-266	-180	
474	474	-264	-179	
475	475	-265	-179	
476	476	-266	-179	
477	477	-264	-180	
478	478	-266	-179	
479	479	-264	-183	
480	480	-266	-180	
481	481	-263	-180	
482	482	-265	-181	
483	483	-264	-182	
484	484	-262	-181	
485	485	-260	-180	
486	486	-264	-181	
487	487	-263	-180	
488	488	-262	-181	
489	489	-263	-180	
490	490	-262	-181	
491	491	-262	-183	
492	492	-262	-182	
493	493	-259	-184	
494	494	-262	-181	
495	495	-260	-186	
496	496	-259	-181	
497	497	-262	-182	
498	498	-262	-183	
499	499	-260	-181	
500	500	-262	-184	
501	501	-262	-182	
502	502	-260	-185	
503	503	-260	-186	
504	504	-260	-183	
505	505	-260	-185	
506	506	-260	-186	
507	507	-259	-184	
508	508	-260	-184	
509	509	-260	-184	
510	510	-260	-185	
511	511	-258	-186	
512	512	-258	-184	
513	513	-260	-188	
514	514	-260	-185	
515	515	-258	-188	
516	516	-258	-188	
517	517	-260	-188	
518	518	-257	-188	
519	519	-258	-188	
520	520	-257	-190	
521	521	-259	-188	
522	522	-260	-188	
523	523	-259	-191	
524	524	-256	-188	
525	525	-257	-190	
526	526	-256	-186	
527	527	-256	-189	
528	528	-257	-188	
529	529	-257	-188	
530	530	-258	-186	
531	531	-258	-190	
532	532	-259	-188	
533	533	-259	-185	
534	534	-259	-185	
535	535	-262	-186	
536	536	-258	-185	
537	537	-256	-188	
538	538	-258	-186	
539	539	-258	-186	
540	540	-261	-185	
541	541	-260	-186	
542	542	-260	-184	
543	543	-260	-185	
544	544	-260	-184	
545	545	-260	-184	
546	546	-262	-182	
547	547	-262	-184	
548	548	-262	-181	
549	549	-263	-181	
550	550	-261	-181	
551	551	-260	-183	
552	552	-262	-182	
553	553	-261	-182	
554	554	-263	-184	
555	555	-261	-183	
556	556	-260	-182	
557	557	-262	-184	
558	558	-261	-180	
559	559	-264	-182	
560	560	-263	-182	
561	561	-263	-181	
562	562	-260	-185	
563	563	-262	-181	
564	564	-260	-181	
565	565	-263	-181	
566	566	-262	-181	
567	567	-261	-181	
568	568	-260	-181	
569	569	-260	-188	
570	570	-259	-181	
571	571	-258	-186	
572	572	-260	-184	
573	573	-258	-186	
574	574	-259	-184	
575	575	-259	-185	
576	576	-259	-185	
577	577	-262	-184	
578	578	-257	-186	
579	579	-259	-184	
580	580	-260	-186	
581	581	-259	-185	
582	582	-258	-184	
583	583	-260	-184	
584	584	-260	-185	
585	585	-260	-184	
586	586	-257	-187	
587	587	-262	-183	
588	588	-260	-184	
589	589	-259	-185	
590	590	-259	-182	
591	591	-260	-184	
592	592	-260	-182	
593	593	-262	-185	
594	594	-259	-185	
595	595	-259	-183	
596	596	-260	-184	
597	597	-258	-186	
598	598	-258	-188	
599	599	-258	-186	
600	600	-258	-184	
601	601	-260	-185	
602	602	-258	-186	
603	603	-258	-186	
604	604	-258	-186	
605	605	-260	-186	
606	606	-260	-188	
607	607	-260	-186	
608	608	-259	-188	
609	609	-258	-186	
610	610	-262	-182	
611	611	-260	-186	
612	612	-261	-184	
613	613	-259	-184	
614	614	-260	-185	
615	615	-258	-186	
616	616	-262	-184	
617	617	-259	-185	
618	618	-258	-186	
619	619	-259	-185	
620	620	-258	-188	
621	621	-259	-188	
622	622	-258	-184	
623	623	-258	-187	
624	624	-259	-186	
625	625	-258	-186	
626	626	-256	-189	
627	627	-258	-189	
628	628	-256	-186	
629	629	-258	-188	
630	630	-256	-186	
631	631	-259	-186	
632	632	-259	-188	
633	633	-257	-188	
634	634	-258	-186	
635	635	-258	-185	
636	636	-258	-186	
637	637	-258	-186	
638	638	-259	-185	
639	639	-259	-186	
640	640	-260	-185	
641	641	-259	-184	
642	642	-259	-184	
643	643	-259	-184	
644	644	-259	-185	
645	645	-261	-186	
646	646	-258	-181	
647	647	-259	-186	
648	648	-260	-182	
649	649	-262	-185	
650	650	-258	-184	
651	651	-260	-184	
652	652	-260	-182	
653	653	-262	-182	
654	654	-260	-181	
655	655	-261	-180	
656	656	-262	-180	
657	657	-260	-180	
658	658	-266	-182	
659	659	-264	-181	
660	660	-262	-183	
661	661	-261	-181	
662	662	-264	-181	
663	663	-260	-180	
664	664	-260	-184	
665	665	-262	-181	
666	666	-266	-180	
667	667	-266	-179	
668	668	-263	-180	
669	669	-265	-180	
670	670	-262	-179	
671	671	-262	-180	
672	672	-260	-181	
673	673	-262	-179	
674	674	-262	-183	
675	675	-262	-182	
676	676	-263	-181	
677	677	-263	-182	
678	678	-264	-179	
679	679	-264	-182	
680	680	-262	-181	
681	681	-262	-181	
682	682	-262	-181	
683	683	-262	-181	
684	684	-260	-181	
685	685	-260	-182	
686	686	-263	-181	
687	687	-258	-181	
688	688	-261	-184	
689	689	-262	-180	
690	690	-262	-182	
691	691	-264	-184	
692	692	-262	-181	
693	693	-262	-184	
694	694	-262	-181	
695	695	-261	-182	
696	696	-263	-180	
697	697	-261	-181	
698	698	-259	-181	
699	699	-263	-181	
700	700	-262	-180	
701	701	-259	-181	
702	702	-262	-182	
703	703	-262	-182	
704	704	-260	-184	
705	705	-260	-188	
706	706	-260	-184	
707	707	-262	-185	
708	708	-262	-184	
709	709	-261	-184	
710	710	-260	-184	
711	711	-259	-186	
712	712	-258	-184	
713	713	-258	-186	
714	714	-258	-187	
715	715	-259	-183	
716	716	-260	-186	
717	717	-258	-184	
718	718	-259	-186	
719	719	-259	-186	
720	720	-260	-186	
721	721	-258	-186	
722	722	-257	-185	
723	723	-258	-186	
724	724	-259	-186	
725	725	-259	-188	
726	726	-258	-185	
727	727	-260	-188	
728	728	-256	-185	
729	729	-259	-190	
730	730	-255	-189	
731	731	-256	-189	
732	732	-260	-186	
733	733	-258	-188	
734	734	-259	-185	
735	735	-258	-188	
736	736	-260	-185	
737	737	-258	-184	
738	738	-258	-184	
739	739	-258	-184	
740	740	-260	-184	
741	741	-260	-186	
742	742	-259	-186	
743	743	-260	-183	
744	744	-260	-183	
745	745	-259	-183	
746	746	-259	-184	
747	747	-260	-184	
748	748	-262	-183	
749	749	-260	-184	
750	750	-259	-183	
751	751	-260	-183	
752	752	-262	-184	
753	753	-259	-182	
754	754	-262	-181	
755	755	-262	-181	
756	756	-262	-182	
757	757	-260	-181	
758	758	-263	-182	
759	759	-260	-183	
760	760	-262	-181	
761	761	-263	-182	
762	762	-262	-183	
763	763	-260	-181	
764	764	-261	-181	
765	765	-261	-183	
766	766	-263	-184	
767	767	-262	-181	
768	768	-263	-181	
769	769	-263	-183	
770	770	-263	-181	
771	771	-264	-183	
772	772	-261	-180	
773	773	-266	-182	
774	774	-260	-183	
775	775	-262	-182	
776	776	-263	-185	
777	777	-263	-181	
778	778	-262	-181	
779	779	-262	-182	
780	780	-260	-183	
781	781	-259	-183	
782	782	-261	-184	
783	783	-258	-183	
784	784	-262	-183	
785	785	-259	-184	
786	786	-259	-184	
787	787	-258	-186	
788	788	-260	-184	
789	789	-258	-186	
790	790	-257	-188	
791	791	-258	-186	
792	792	-259	-186	
793	793	-258	-188	
794	794	-258	-185	
795	795	-260	-185	
796	796	-258	-186	
797	797	-259	-184	
798	798	-258	-185	
799	799	-262	-186	
800	800	-258	-185	
801	801	-259	-188	
802	802	-258	-185	
803	803	-256	-186	
804	804	-260	-182	
805	805	-259	-186	
806	806	-260	-184	
807	807	-258	-185	
808	808	-259	-182	
809	809	-258	-184	
810	810	-258	-184	
811	811	-258	-184	
812	812	-260	-184	
813	813	-259	-188	
814	814	-259	-184	
815	815	-260	-182	
816	816	-260	-184	
817	817	-261	-181	
818	818	-262	-183	
819	819	-260	-184	
820	820	-259	-183	
821	821	-262	-183	
822	822	-262	-181	
823	823	-262	-182	
824	824	-260	-181	
825	825	-262	-183	
826	826	-260	-184	
827	827	-259	-184	
828	828	-258	-184	
829	829	-262	-182	
830	830	-259	-184	
831	831	-259	-181	
832	832	-261	-183	
833	833	-261	-183	
834	834	-259	-183	
835	835	-261	-183	
836	836	-260	-182	
837	837	-263	-181	
838	838	-264	-181	
839	839	-262	-184	
840	840	-264	-179	
841	841	-262	-182	
842	842	-261	-179	
843	843	-264	-181	
844	844	-266	-181	
845	845	-264	-184	
846	846	-263	-179	
847	847	-266	-181	
848	848	-263	-179	
849	849	-262	-179	
850	850	-264	-177	
851	851	-264	-180	
852	852	-264	-179	
853	853	-263	-179	
854	854	-264	-178	
855	855	-264	-179	
856	856	-267	-179	
857	857	-266	-179	
858	858	-267	-177	
859	859	-268	-176	
860	860	-267	-175	
861	861	-268	-173	
862	862	-267	-176	
863	863	-270	-173	
864	864	-266	-176	
865	865	-270	-173	
866	866	-269	-171	
867	867	-267	-174	
868	868	-270	-170	
869	869	-270	-172	
870	870	-268	-169	
871	871	-270	-169	
872	872	-270	-172	
873	873	-270	-171	
874	874	-270	-169	
875	875	-270	-167	
876	876	-272	-168	
877	877	-272	-168	
878	878	-272	-168	
879	879	-274	-170	
880	880	-270	-167	
881	881	-272	-166	
882	882	-274	-167	
883	883	-272	-166	
884	884	-271	-168	
885	885	-272	-169	
886	886	-272	-166	
887	887	-271	-168	
888	888	-271	-168	
889	889	-271	-168	
890	890	-272	-168	
891	891	-271	-168	
892	892	-269	-168	
893	893	-272	-169	
894	894	-268	-171	
895	895	-270	-169	
896	896	-268	-171	
897	897	-268	-173	
898	898	-266	-173	
899	899	-269	-174	
900	900	-267	-172	
901	901	-268	-173	
902	902	-267	-176	
903	903	-267	-174	
904	904	-269	-173	
905	905	-266	-176	
906	906	-266	-177	
907	907	-266	-179	
908	908	-266	-176	
909	909	-262	-176	
910	910	-263	-179	
911	911	-262	-180	
912	912	-260	-181	
913	913	-260	-183	
914	914	-260	-181	
915	915	-261	-182	
916	916	-262	-183	
917	917	-260	-183	
918	918	-260	-184	
919	919	-260	-186	
920	920	-260	-186	
921	921	-257	-188	
922	922	-258	-189	
923	923	-258	-188	
924	924	-257	-188	
925	925	-257	-188	
926	926	-259	-188	
927	927	-255	-190	
928	928	-258	-188	
929	929	-256	-189	
930	930	-256	-188	
931	931	-256	-188	
932	932	-256	-188	
933	933	-256	-192	
934	934	-256	-188	
935	935	-256	-190	
936	936	-255	-188	
937	937	-255	-191	
938	938	-255	-190	
939	939	-254	-188	
940	940	-256	-190	
941	941	-256	-188	
942	942	-258	-185	
943	943	-256	-189	
944	944	-258	-185	
945	945	-258	-184	
946	946	-259	-181	
947	947	-260	-182	
948	948	-262	-185	
949	949	-258	-184	
950	950	-260	-181	
951	951	-263	-181	
952	952	-262	-181	
953	953	-260	-181	
954	954	-262	-179	
955	955	-262	-179	
956	956	-262	-180	
957	957	-264	-179	
958	958	-262	-178	
959	959	-264	-180	
960	960	-262	-181	
961	961	-264	-180	
962	962	-263	-179	
963	963	-264	-177	
964	964	-262	-179	
965	965	-262	-181	
966	966	-260	-181	
967	967	-262	-180	
968	968	-260	-180	
969	969	-263	-183	
970	970	-263	-180	
971	971	-261	-181	
972	972	-262	-182	
973	973	-260	-184	
974	974	-260	-184	
975	975	-260	-183	
976	976	-259	-182	
977	977	-259	-183	
978	978	-260	-184	
979	979	-261	-181	
980	980	-260	-183	
981	981	-258	-186	
982	982	-261	-184	
983	983	-260	-186	
984	984	-256	-186	
985	985	-258	-187	
986	986	-258	-185	
987	987	-256	-190	
988	988	-257	-189	
989	989	-255	-189	
990	990	-256	-190	
991	991	-253	-189	
992	992	-258	-191	
993	993	-255	-188	
994	994	-254	-192	
995	995	-255	-189	
996	996	-257	-193	
997	997	-254	-188	
998	998	-252	-192	
999	999	-251	-190	
1000	1000	-256	-192	
1001	1001	-255	-192	
1002	1002	-255	-188	
1003	1003	-252	-188	
1004	1004	-255	-189	
1005	1005	-255	-191	
1006	1006	-258	-186	
1007	1007	-259	-189	
1008	1008	-254	-189	
1009	1009	-254	-188	
1010	1010	-256	-188	
1011	1011	-256	-186	
1012	1012	-258	-188	
1013	1013	-258	-189	
1014	1014	-259	-184	
1015	1015	-258	-188	
1016	1016	-258	-184	
1017	1017	-256	-184	
1018	1018	-258	-182	
1019	1019	-259	-182	
1020	1020	-260	-181	
1021	1021	-259	-183	
1022	1022	-260	-179	
1023	1023	-261	-178	
1024	1024	-262	-181	
1025	1025	-260	-179	
1026	1026	-262	-180	
1027	1027	-262	-181	
1028	1028	-262	-180	
1029	1029	-260	-181	
1030	1030	-262	-180	
1031	1031	-260	-181	
1032	1032	-262	-181	
1033	1033	-263	-181	
1034	1034	-262	-177	
1035	1035	-262	-180	
1036	1036	-260	-182	
1037	1037	-260	-182	
1038	1038	-259	-183	
1039	1039	-260	-182	
1040	1040	-262	-184	
1041	1041	-260	-181	
1042	1042	-260	-181	
1043	1043	-260	-180	
1044	1044	-260	-181	
1045	1045	-262	-184	
1046	1046	-260	-183	
1047	1047	-260	-184	
1048	1048	-259	-184	
1049	1049	-259	-184	
1050	1050	-260	-185	
1051	1051	-259	-183	
1052	1052	-259	-184	
1053	1053	-259	-184	
1054	1054	-258	-185	
