Sample in Buffer	Sample in Window	tx_i	tx_q
0	0	95	56	
1	1	100	51	
2	2	95	53	
3	3	99	50	
4	4	97	53	
5	5	96	52	
6	6	99	54	
7	7	99	50	
8	8	98	52	
9	9	97	52	
10	10	97	51	
11	11	97	52	
12	12	97	52	
13	13	97	52	
14	14	97	52	
15	15	98	52	
16	16	96	52	
17	17	100	52	
18	18	98	54	
19	19	98	50	
20	20	96	54	
21	21	95	52	
22	22	98	52	
23	23	97	50	
24	24	95	53	
25	25	97	53	
26	26	94	54	
27	27	96	50	
28	28	97	54	
29	29	97	52	
30	30	96	52	
31	31	94	50	
32	32	97	52	
33	33	97	50	
34	34	98	53	
35	35	98	54	
36	36	96	52	
37	37	95	52	
38	38	95	54	
39	39	97	53	
40	40	95	52	
41	41	98	53	
42	42	97	54	
43	43	94	53	
44	44	97	52	
45	45	97	52	
46	46	97	52	
47	47	98	54	
48	48	96	49	
49	49	99	52	
50	50	95	53	
51	51	99	49	
52	52	95	53	
53	53	98	54	
54	54	95	54	
55	55	96	50	
56	56	97	54	
57	57	95	53	
58	58	96	54	
59	59	97	52	
60	60	96	54	
61	61	95	51	
62	62	98	54	
63	63	97	51	
64	64	99	54	
65	65	95	53	
66	66	97	54	
67	67	93	51	
68	68	99	52	
69	69	97	53	
70	70	96	51	
71	71	97	55	
72	72	95	53	
73	73	96	54	
74	74	97	52	
75	75	99	52	
76	76	97	54	
77	77	97	53	
78	78	97	50	
79	79	97	54	
80	80	99	54	
81	81	98	53	
82	82	98	50	
83	83	95	54	
84	84	97	52	
85	85	100	54	
86	86	95	52	
87	87	97	52	
88	88	98	54	
89	89	96	50	
90	90	97	54	
91	91	97	51	
92	92	99	50	
93	93	97	52	
94	94	100	50	
95	95	98	49	
96	96	97	54	
97	97	100	50	
98	98	98	53	
99	99	98	48	
100	100	97	50	
101	101	99	51	
102	102	99	51	
103	103	100	49	
104	104	95	50	
105	105	97	52	
106	106	98	48	
107	107	100	48	
108	108	97	48	
109	109	99	54	
110	110	96	48	
111	111	99	49	
112	112	96	48	
113	113	99	54	
114	114	96	50	
115	115	96	52	
116	116	97	51	
117	117	98	51	
118	118	97	51	
119	119	97	50	
120	120	99	53	
121	121	95	51	
122	122	98	52	
123	123	99	54	
124	124	97	54	
125	125	95	50	
126	126	97	50	
127	127	99	49	
128	128	98	52	
129	129	97	53	
130	130	97	54	
131	131	97	50	
132	132	97	51	
133	133	97	51	
134	134	98	52	
135	135	98	53	
136	136	98	50	
137	137	98	54	
138	138	97	51	
139	139	97	51	
140	140	97	51	
141	141	98	52	
142	142	98	50	
143	143	99	51	
144	144	98	52	
145	145	97	51	
146	146	98	48	
147	147	99	50	
148	148	97	49	
149	149	98	52	
150	150	97	50	
151	151	98	50	
152	152	97	51	
153	153	98	49	
154	154	99	50	
155	155	99	48	
156	156	95	52	
157	157	99	50	
158	158	97	49	
159	159	98	49	
160	160	98	50	
161	161	97	50	
162	162	98	53	
163	163	95	48	
164	164	99	50	
165	165	97	50	
166	166	101	51	
167	167	100	52	
168	168	97	50	
169	169	98	50	
170	170	97	49	
171	171	98	52	
172	172	99	48	
173	173	98	50	
174	174	99	46	
175	175	97	50	
176	176	100	49	
177	177	97	51	
178	178	100	49	
179	179	98	51	
180	180	99	49	
181	181	98	50	
182	182	97	49	
183	183	98	50	
184	184	101	48	
185	185	95	48	
186	186	100	48	
187	187	97	50	
188	188	100	53	
189	189	99	50	
190	190	98	52	
191	191	98	49	
192	192	100	51	
193	193	97	52	
194	194	97	48	
195	195	99	52	
196	196	98	50	
197	197	100	48	
198	198	100	49	
199	199	99	51	
200	200	98	49	
201	201	99	52	
202	202	98	48	
203	203	98	49	
204	204	100	51	
205	205	98	49	
206	206	100	50	
207	207	97	53	
208	208	98	48	
209	209	98	48	
210	210	100	51	
211	211	98	48	
212	212	102	51	
213	213	97	51	
214	214	97	49	
215	215	97	49	
216	216	97	50	
217	217	95	49	
218	218	98	51	
219	219	98	49	
220	220	97	50	
221	221	97	53	
222	222	99	49	
223	223	97	53	
224	224	98	51	
225	225	98	52	
226	226	99	49	
227	227	96	47	
228	228	97	51	
229	229	97	52	
230	230	95	50	
231	231	99	51	
232	232	98	49	
233	233	97	52	
234	234	97	53	
235	235	97	54	
236	236	97	51	
237	237	98	50	
238	238	98	51	
239	239	97	49	
240	240	97	53	
241	241	99	51	
242	242	95	51	
243	243	99	48	
244	244	97	53	
245	245	98	50	
246	246	95	52	
247	247	96	50	
248	248	96	51	
249	249	98	49	
250	250	95	53	
251	251	99	48	
252	252	98	50	
253	253	98	49	
254	254	99	53	
255	255	97	51	
256	256	98	50	
257	257	97	50	
258	258	95	50	
259	259	97	51	
260	260	97	54	
261	261	97	50	
262	262	97	52	
263	263	97	52	
264	264	97	51	
265	265	95	52	
266	266	97	52	
267	267	99	50	
268	268	97	51	
269	269	97	52	
270	270	99	52	
271	271	97	53	
272	272	97	51	
273	273	97	52	
274	274	97	50	
275	275	97	53	
276	276	97	51	
277	277	96	52	
278	278	98	50	
279	279	97	53	
280	280	97	51	
281	281	99	51	
282	282	98	49	
283	283	98	50	
284	284	97	51	
285	285	96	52	
286	286	97	49	
287	287	97	52	
288	288	95	54	
289	289	98	49	
290	290	95	52	
291	291	99	49	
292	292	96	51	
293	293	97	50	
294	294	98	52	
295	295	95	53	
296	296	98	52	
297	297	96	51	
298	298	98	50	
299	299	99	50	
300	300	97	50	
301	301	99	54	
302	302	97	50	
303	303	99	52	
304	304	99	51	
305	305	97	52	
306	306	98	50	
307	307	98	52	
308	308	98	52	
309	309	98	50	
310	310	94	49	
311	311	99	49	
312	312	99	52	
313	313	98	52	
314	314	95	53	
315	315	98	48	
316	316	98	52	
317	317	97	48	
318	318	98	50	
319	319	97	53	
320	320	100	50	
321	321	98	52	
322	322	98	49	
323	323	98	49	
324	324	97	50	
325	325	99	51	
326	326	99	50	
327	327	98	47	
328	328	97	52	
329	329	97	48	
330	330	97	49	
331	331	97	50	
332	332	97	50	
333	333	99	51	
334	334	97	52	
335	335	97	51	
336	336	97	51	
337	337	98	52	
338	338	97	49	
339	339	98	51	
340	340	98	50	
341	341	99	48	
342	342	97	50	
343	343	97	49	
344	344	99	53	
345	345	97	50	
346	346	98	50	
347	347	96	50	
348	348	98	50	
349	349	95	50	
350	350	100	52	
351	351	94	49	
352	352	97	50	
353	353	97	48	
354	354	98	51	
355	355	98	49	
356	356	97	52	
357	357	98	51	
358	358	96	51	
359	359	99	51	
360	360	97	48	
361	361	98	52	
362	362	97	53	
363	363	99	52	
364	364	98	52	
365	365	99	54	
366	366	95	51	
367	367	98	54	
368	368	97	52	
369	369	98	50	
370	370	95	50	
371	371	98	52	
372	372	95	53	
373	373	97	53	
374	374	96	52	
375	375	97	54	
376	376	95	54	
377	377	96	50	
378	378	96	50	
379	379	97	53	
380	380	98	51	
381	381	97	54	
382	382	94	55	
383	383	99	52	
384	384	97	52	
385	385	98	50	
386	386	97	51	
387	387	97	52	
388	388	97	49	
389	389	95	53	
390	390	96	50	
391	391	99	52	
392	392	95	51	
393	393	96	55	
394	394	97	49	
395	395	97	50	
396	396	97	50	
397	397	95	51	
398	398	97	51	
399	399	95	49	
400	400	98	48	
401	401	97	53	
402	402	97	49	
403	403	97	51	
404	404	97	50	
405	405	95	48	
406	406	97	50	
407	407	97	52	
408	408	97	51	
409	409	95	50	
410	410	98	52	
411	411	96	50	
412	412	93	52	
413	413	97	51	
414	414	100	53	
415	415	95	50	
416	416	97	49	
417	417	96	52	
418	418	98	49	
419	419	97	53	
420	420	97	48	
421	421	97	52	
422	422	97	49	
423	423	98	51	
424	424	98	50	
425	425	98	51	
426	426	97	52	
427	427	97	48	
428	428	96	52	
429	429	97	48	
430	430	99	51	
431	431	99	52	
432	432	97	50	
433	433	99	52	
434	434	95	51	
435	435	98	51	
436	436	95	52	
437	437	97	50	
438	438	97	51	
439	439	97	53	
440	440	95	52	
441	441	97	50	
442	442	97	50	
443	443	98	49	
444	444	96	53	
445	445	98	50	
446	446	97	51	
447	447	97	49	
448	448	95	49	
449	449	98	51	
450	450	97	50	
451	451	97	49	
452	452	97	53	
453	453	97	48	
454	454	98	50	
455	455	97	51	
456	456	99	52	
457	457	97	50	
458	458	97	50	
459	459	98	48	
460	460	94	50	
461	461	97	48	
462	462	96	54	
463	463	98	50	
464	464	95	50	
465	465	98	50	
466	466	95	52	
467	467	97	51	
468	468	99	52	
469	469	95	49	
470	470	97	52	
471	471	96	48	
472	472	96	51	
473	473	97	48	
474	474	98	51	
475	475	95	50	
476	476	96	53	
477	477	97	52	
478	478	97	51	
479	479	97	54	
480	480	97	52	
481	481	95	50	
482	482	99	51	
483	483	97	52	
484	484	95	51	
485	485	96	54	
486	486	97	49	
487	487	95	52	
488	488	94	50	
489	489	97	51	
490	490	97	51	
491	491	95	52	
492	492	99	52	
493	493	95	51	
494	494	96	48	
495	495	100	49	
496	496	98	49	
497	497	96	50	
498	498	100	49	
499	499	95	48	
500	500	98	52	
501	501	98	47	
502	502	99	51	
503	503	96	48	
504	504	98	54	
505	505	96	47	
506	506	100	49	
507	507	99	51	
508	508	98	50	
509	509	98	47	
510	510	100	50	
511	511	97	48	
512	512	100	52	
513	513	99	47	
514	514	100	48	
515	515	97	50	
516	516	98	46	
517	517	98	49	
518	518	101	48	
519	519	100	48	
520	520	96	47	
521	521	99	47	
522	522	98	48	
523	523	97	48	
524	524	100	46	
525	525	97	50	
526	526	100	48	
527	527	98	48	
528	528	102	48	
529	529	97	49	
530	530	97	50	
531	531	97	50	
532	532	101	47	
533	533	98	52	
534	534	99	50	
535	535	95	48	
536	536	101	50	
537	537	98	48	
538	538	99	48	
539	539	99	49	
540	540	99	47	
541	541	98	50	
542	542	99	48	
543	543	100	50	
544	544	98	49	
545	545	98	48	
546	546	101	48	
547	547	99	49	
548	548	101	47	
549	549	98	49	
550	550	100	48	
551	551	101	52	
552	552	98	47	
553	553	98	49	
554	554	102	50	
555	555	99	50	
556	556	97	51	
557	557	97	50	
558	558	98	52	
559	559	98	48	
560	560	98	48	
561	561	98	49	
562	562	100	50	
563	563	97	49	
564	564	99	50	
565	565	99	50	
566	566	100	48	
567	567	99	48	
568	568	101	47	
569	569	97	48	
570	570	98	47	
571	571	98	52	
572	572	97	49	
573	573	97	48	
574	574	97	49	
575	575	98	50	
576	576	99	47	
577	577	97	48	
578	578	100	51	
579	579	97	52	
580	580	102	46	
581	581	96	50	
582	582	100	46	
583	583	100	47	
584	584	102	48	
585	585	97	46	
586	586	100	50	
587	587	99	46	
588	588	100	50	
589	589	98	47	
590	590	100	48	
591	591	99	47	
592	592	100	46	
593	593	100	48	
594	594	99	48	
595	595	97	48	
596	596	99	47	
597	597	97	48	
598	598	101	48	
599	599	98	45	
600	600	103	47	
601	601	98	48	
602	602	100	48	
603	603	98	48	
604	604	100	47	
605	605	98	46	
606	606	102	48	
607	607	99	47	
608	608	100	48	
609	609	99	48	
610	610	100	47	
611	611	97	46	
612	612	99	49	
613	613	98	47	
614	614	100	50	
615	615	97	44	
616	616	98	49	
617	617	101	48	
618	618	101	50	
619	619	101	47	
620	620	100	51	
621	621	97	49	
622	622	100	50	
623	623	100	47	
624	624	101	46	
625	625	98	48	
626	626	102	46	
627	627	97	49	
628	628	99	46	
629	629	98	48	
630	630	101	47	
631	631	97	50	
632	632	99	47	
633	633	99	46	
634	634	100	50	
635	635	101	48	
636	636	97	46	
637	637	98	46	
638	638	99	48	
639	639	101	47	
640	640	95	47	
641	641	100	46	
642	642	100	48	
643	643	100	44	
644	644	97	48	
645	645	101	47	
646	646	98	46	
647	647	100	48	
648	648	98	47	
649	649	100	47	
650	650	98	47	
651	651	102	47	
652	652	97	48	
653	653	99	48	
654	654	100	44	
655	655	99	46	
656	656	98	49	
657	657	98	47	
658	658	100	47	
659	659	100	46	
660	660	101	46	
661	661	100	47	
662	662	98	48	
663	663	97	46	
664	664	100	46	
665	665	100	48	
666	666	97	48	
667	667	97	46	
668	668	99	48	
669	669	98	47	
670	670	99	45	
671	671	99	46	
672	672	97	47	
673	673	99	49	
674	674	98	46	
675	675	99	47	
676	676	98	45	
677	677	100	47	
678	678	99	47	
679	679	99	47	
680	680	98	47	
681	681	98	48	
682	682	97	46	
683	683	100	46	
684	684	100	47	
685	685	95	47	
686	686	101	47	
687	687	97	47	
688	688	99	50	
689	689	98	47	
690	690	97	49	
691	691	98	46	
692	692	101	47	
693	693	100	48	
694	694	98	47	
695	695	101	46	
696	696	99	47	
697	697	99	45	
698	698	99	49	
699	699	97	47	
700	700	100	47	
701	701	99	47	
702	702	100	46	
703	703	99	46	
704	704	99	47	
705	705	99	45	
706	706	102	49	
707	707	97	46	
708	708	99	48	
709	709	99	45	
710	710	100	49	
711	711	97	44	
712	712	99	48	
713	713	99	45	
714	714	98	47	
715	715	99	46	
716	716	98	47	
717	717	101	48	
718	718	100	50	
719	719	98	47	
720	720	99	48	
721	721	96	47	
722	722	100	47	
723	723	97	49	
724	724	100	47	
725	725	98	46	
726	726	98	47	
727	727	97	48	
728	728	98	46	
729	729	98	47	
730	730	99	46	
731	731	98	46	
732	732	98	49	
733	733	99	46	
734	734	98	48	
735	735	97	48	
736	736	98	46	
737	737	98	48	
738	738	98	48	
739	739	100	49	
740	740	97	44	
741	741	99	47	
742	742	99	45	
743	743	97	46	
744	744	98	48	
745	745	97	46	
746	746	98	47	
747	747	100	47	
748	748	100	47	
749	749	99	46	
750	750	100	47	
751	751	97	47	
752	752	99	48	
753	753	97	46	
754	754	98	48	
755	755	100	48	
756	756	98	48	
757	757	98	46	
758	758	99	46	
759	759	98	47	
760	760	99	47	
761	761	99	46	
762	762	101	46	
763	763	98	46	
764	764	101	47	
765	765	98	46	
766	766	102	44	
767	767	99	46	
768	768	101	47	
769	769	101	43	
770	770	98	45	
771	771	99	42	
772	772	97	46	
773	773	99	47	
774	774	98	46	
775	775	101	47	
776	776	98	45	
777	777	99	47	
778	778	99	43	
779	779	99	46	
780	780	100	44	
781	781	100	46	
782	782	100	44	
783	783	101	46	
784	784	98	44	
785	785	102	47	
786	786	98	44	
787	787	98	45	
788	788	98	44	
789	789	100	42	
790	790	101	46	
791	791	99	42	
792	792	100	46	
793	793	99	46	
794	794	100	41	
795	795	100	44	
796	796	100	42	
797	797	100	44	
798	798	100	45	
799	799	101	46	
800	800	99	45	
801	801	100	45	
802	802	99	44	
803	803	100	44	
804	804	101	46	
805	805	102	42	
806	806	102	46	
807	807	101	41	
808	808	101	43	
809	809	98	40	
810	810	102	44	
811	811	99	44	
812	812	101	42	
813	813	100	46	
814	814	101	44	
815	815	100	42	
816	816	100	44	
817	817	100	42	
818	818	99	46	
819	819	100	39	
820	820	102	44	
821	821	101	42	
822	822	101	44	
823	823	100	43	
824	824	101	44	
825	825	102	44	
826	826	99	44	
827	827	102	45	
828	828	99	46	
829	829	100	42	
830	830	98	44	
831	831	103	43	
832	832	101	45	
833	833	101	43	
834	834	101	44	
835	835	101	42	
836	836	100	44	
837	837	102	40	
838	838	100	42	
839	839	102	45	
840	840	100	41	
841	841	101	45	
842	842	99	42	
843	843	101	45	
844	844	100	45	
845	845	100	45	
846	846	103	44	
847	847	98	43	
848	848	100	41	
849	849	101	42	
850	850	100	43	
851	851	100	42	
852	852	99	44	
853	853	100	43	
854	854	100	42	
855	855	101	44	
856	856	99	45	
857	857	100	42	
858	858	100	46	
859	859	99	42	
860	860	100	45	
861	861	102	41	
862	862	100	45	
863	863	100	43	
864	864	97	46	
865	865	100	42	
866	866	98	44	
867	867	98	44	
868	868	101	43	
869	869	98	43	
870	870	99	42	
871	871	100	43	
872	872	100	42	
873	873	99	42	
874	874	103	44	
875	875	100	42	
876	876	99	42	
877	877	97	42	
878	878	101	39	
879	879	98	42	
880	880	100	41	
881	881	100	43	
882	882	101	39	
883	883	100	42	
884	884	100	38	
885	885	99	40	
886	886	101	41	
887	887	103	42	
888	888	99	40	
889	889	101	40	
890	890	99	40	
891	891	100	40	
892	892	101	43	
893	893	100	40	
894	894	102	39	
895	895	99	39	
896	896	101	40	
897	897	102	40	
898	898	102	40	
899	899	102	41	
900	900	101	39	
901	901	100	39	
902	902	101	43	
903	903	99	40	
904	904	102	43	
905	905	101	40	
906	906	101	40	
907	907	100	42	
908	908	102	40	
909	909	100	38	
910	910	100	41	
911	911	101	41	
912	912	100	43	
913	913	100	42	
914	914	100	42	
915	915	100	41	
916	916	99	43	
917	917	100	42	
918	918	99	44	
919	919	100	41	
920	920	101	43	
921	921	101	46	
922	922	98	44	
923	923	97	40	
924	924	100	45	
925	925	100	44	
926	926	99	41	
927	927	101	42	
928	928	96	44	
929	929	99	40	
930	930	97	40	
931	931	99	41	
932	932	99	41	
933	933	100	42	
934	934	99	42	
935	935	98	45	
936	936	100	39	
937	937	100	43	
938	938	99	43	
939	939	100	43	
940	940	97	46	
941	941	99	42	
942	942	99	44	
943	943	100	44	
944	944	100	41	
945	945	99	46	
946	946	101	43	
947	947	100	46	
948	948	100	40	
949	949	98	44	
950	950	98	40	
951	951	99	44	
952	952	99	43	
953	953	100	42	
954	954	98	41	
955	955	100	46	
956	956	98	43	
957	957	100	46	
958	958	100	42	
959	959	98	42	
960	960	97	43	
961	961	99	42	
962	962	99	39	
963	963	98	40	
964	964	101	41	
965	965	99	43	
966	966	99	41	
967	967	98	44	
968	968	100	38	
969	969	97	44	
970	970	99	38	
971	971	99	43	
972	972	100	39	
973	973	100	43	
974	974	101	43	
975	975	100	40	
976	976	102	43	
977	977	100	44	
978	978	100	42	
979	979	99	40	
980	980	101	44	
981	981	102	41	
982	982	100	40	
983	983	99	42	
984	984	101	41	
985	985	100	42	
986	986	99	44	
987	987	98	43	
988	988	101	41	
989	989	99	42	
990	990	101	42	
991	991	99	43	
992	992	100	44	
993	993	101	40	
994	994	99	46	
995	995	99	38	
996	996	100	42	
997	997	100	40	
998	998	100	40	
999	999	103	41	
1000	1000	99	41	
1001	1001	100	44	
1002	1002	102	41	
1003	1003	100	41	
1004	1004	101	43	
1005	1005	99	38	
1006	1006	97	41	
1007	1007	98	42	
1008	1008	100	40	
1009	1009	100	40	
1010	1010	99	42	
1011	1011	100	41	
1012	1012	98	40	
1013	1013	100	40	
1014	1014	103	40	
1015	1015	100	38	
1016	1016	100	40	
1017	1017	101	42	
1018	1018	100	41	
1019	1019	101	40	
1020	1020	98	42	
1021	1021	101	38	
1022	1022	98	39	
1023	1023	100	39	
1024	1024	101	43	
1025	1025	101	39	
1026	1026	101	43	
1027	1027	100	38	
1028	1028	100	43	
1029	1029	100	40	
1030	1030	100	40	
1031	1031	101	40	
1032	1032	100	40	
1033	1033	97	40	
1034	1034	100	42	
1035	1035	97	43	
1036	1036	101	41	
1037	1037	98	39	
1038	1038	100	44	
1039	1039	98	41	
1040	1040	101	39	
1041	1041	100	41	
1042	1042	100	41	
1043	1043	97	42	
1044	1044	101	43	
1045	1045	98	42	
1046	1046	102	45	
1047	1047	98	42	
1048	1048	97	40	
1049	1049	99	44	
1050	1050	102	40	
1051	1051	100	44	
1052	1052	99	38	
1053	1053	100	41	
1054	1054	100	41	
1055	1055	100	39	
1056	1056	101	39	
1057	1057	100	40	
1058	1058	102	41	
1059	1059	100	44	
1060	1060	101	41	
1061	1061	101	42	
1062	1062	99	41	
1063	1063	98	43	
1064	1064	99	41	
1065	1065	98	44	
1066	1066	99	39	
1067	1067	100	42	
1068	1068	100	41	
1069	1069	100	42	
1070	1070	100	43	
1071	1071	98	44	
1072	1072	101	43	
1073	1073	101	44	
1074	1074	98	41	
1075	1075	99	44	
1076	1076	99	42	
1077	1077	98	42	
1078	1078	97	43	
1079	1079	98	41	
1080	1080	98	40	
1081	1081	101	44	
1082	1082	99	41	
1083	1083	100	41	
1084	1084	99	40	
1085	1085	99	42	
1086	1086	99	44	
1087	1087	97	42	
1088	1088	98	45	
1089	1089	100	42	
1090	1090	98	41	
1091	1091	97	42	
1092	1092	99	44	
1093	1093	100	40	
1094	1094	99	41	
1095	1095	97	42	
1096	1096	99	40	
1097	1097	99	40	
1098	1098	99	40	
1099	1099	98	41	
1100	1100	98	42	
1101	1101	99	40	
1102	1102	96	41	
1103	1103	99	42	
1104	1104	99	43	
1105	1105	97	45	
1106	1106	96	40	
1107	1107	97	39	
1108	1108	98	42	
1109	1109	98	41	
1110	1110	99	42	
1111	1111	99	44	
1112	1112	99	40	
1113	1113	98	42	
1114	1114	100	41	
1115	1115	99	42	
1116	1116	97	43	
1117	1117	98	42	
1118	1118	99	41	
1119	1119	100	40	
1120	1120	97	38	
1121	1121	100	42	
1122	1122	98	44	
1123	1123	98	43	
1124	1124	98	41	
1125	1125	99	42	
1126	1126	99	39	
1127	1127	101	40	
1128	1128	98	39	
1129	1129	97	40	
1130	1130	100	41	
1131	1131	97	43	
1132	1132	98	42	
1133	1133	97	40	
1134	1134	101	41	
1135	1135	102	40	
1136	1136	98	44	
1137	1137	100	43	
1138	1138	97	44	
1139	1139	98	40	
1140	1140	99	44	
1141	1141	98	44	
1142	1142	98	43	
1143	1143	97	43	
1144	1144	98	42	
1145	1145	100	42	
1146	1146	97	43	
1147	1147	99	39	
1148	1148	97	41	
1149	1149	102	41	
1150	1150	99	40	
1151	1151	101	43	
1152	1152	99	44	
1153	1153	100	40	
1154	1154	98	43	
1155	1155	97	42	
1156	1156	98	44	
1157	1157	100	41	
1158	1158	98	40	
1159	1159	98	44	
1160	1160	98	43	
1161	1161	100	44	
1162	1162	100	41	
1163	1163	97	45	
1164	1164	99	41	
1165	1165	97	41	
1166	1166	100	42	
1167	1167	99	42	
1168	1168	99	42	
1169	1169	98	42	
1170	1170	99	43	
1171	1171	99	42	
1172	1172	99	43	
1173	1173	99	41	
1174	1174	99	43	
1175	1175	100	44	
1176	1176	98	43	
1177	1177	100	42	
1178	1178	99	42	
1179	1179	99	43	
1180	1180	99	40	
1181	1181	98	41	
1182	1182	100	43	
1183	1183	98	43	
1184	1184	99	42	
1185	1185	98	41	
1186	1186	97	42	
1187	1187	99	44	
1188	1188	100	43	
1189	1189	99	43	
1190	1190	98	42	
1191	1191	98	41	
1192	1192	100	42	
1193	1193	99	41	
1194	1194	100	45	
1195	1195	100	40	
1196	1196	100	42	
1197	1197	99	44	
1198	1198	99	44	
1199	1199	97	45	
1200	1200	100	41	
1201	1201	98	42	
1202	1202	101	43	
1203	1203	98	40	
1204	1204	99	42	
1205	1205	102	44	
1206	1206	98	42	
1207	1207	97	42	
1208	1208	100	40	
1209	1209	100	44	
1210	1210	100	39	
1211	1211	99	45	
1212	1212	100	42	
1213	1213	99	45	
1214	1214	101	42	
1215	1215	97	42	
1216	1216	100	42	
1217	1217	99	43	
1218	1218	98	42	
1219	1219	98	40	
1220	1220	99	42	
1221	1221	100	39	
1222	1222	99	43	
1223	1223	102	43	
1224	1224	99	39	
1225	1225	98	43	
1226	1226	98	41	
1227	1227	101	38	
1228	1228	97	40	
1229	1229	98	42	
1230	1230	100	42	
1231	1231	100	40	
1232	1232	100	39	
1233	1233	100	39	
1234	1234	100	41	
1235	1235	101	41	
1236	1236	97	42	
1237	1237	99	40	
1238	1238	97	41	
1239	1239	98	42	
1240	1240	98	42	
1241	1241	99	44	
1242	1242	98	40	
1243	1243	99	40	
1244	1244	100	39	
1245	1245	100	42	
1246	1246	100	43	
1247	1247	99	41	
1248	1248	100	39	
1249	1249	99	40	
1250	1250	99	39	
1251	1251	98	41	
1252	1252	100	43	
1253	1253	100	39	
1254	1254	98	40	
1255	1255	101	42	
1256	1256	98	41	
1257	1257	101	41	
1258	1258	99	40	
1259	1259	100	40	
1260	1260	100	42	
1261	1261	100	44	
1262	1262	100	42	
1263	1263	99	41	
1264	1264	98	40	
1265	1265	99	42	
1266	1266	99	40	
1267	1267	98	42	
1268	1268	98	40	
1269	1269	97	40	
1270	1270	97	41	
1271	1271	98	41	
1272	1272	97	40	
1273	1273	97	44	
1274	1274	98	42	
1275	1275	98	41	
1276	1276	97	42	
1277	1277	98	42	
1278	1278	98	38	
1279	1279	98	42	
1280	1280	98	39	
1281	1281	100	42	
