Sample in Buffer	Sample in Window	tx_i	tx_q
0	0	0	0	
1	1	0	0	
2	2	0	0	
3	3	0	0	
4	4	0	0	
5	5	0	0	
6	6	0	0	
7	7	0	0	
8	8	0	0	
9	9	0	0	
10	10	0	0	
11	11	0	0	
12	12	0	0	
13	13	0	0	
14	14	0	0	
15	15	0	0	
16	16	0	0	
17	17	0	0	
18	18	0	0	
19	19	0	0	
20	20	0	0	
21	21	0	0	
22	22	0	0	
23	23	0	0	
24	24	0	0	
25	25	0	0	
26	26	0	0	
27	27	0	0	
28	28	0	0	
29	29	0	0	
30	30	0	0	
31	31	0	0	
32	32	0	0	
33	33	0	0	
34	34	0	0	
35	35	0	0	
36	36	0	0	
37	37	0	0	
38	38	0	0	
39	39	0	0	
40	40	0	0	
41	41	0	0	
42	42	0	0	
43	43	0	0	
44	44	0	0	
45	45	0	0	
46	46	0	0	
47	47	0	0	
48	48	0	0	
49	49	0	0	
50	50	0	0	
51	51	0	0	
52	52	0	0	
53	53	0	0	
54	54	0	0	
55	55	0	0	
56	56	0	0	
57	57	0	0	
58	58	0	0	
59	59	0	0	
60	60	0	0	
61	61	0	0	
62	62	0	0	
63	63	0	0	
64	64	0	0	
65	65	0	0	
66	66	0	0	
67	67	0	0	
68	68	0	0	
69	69	0	0	
70	70	0	0	
71	71	0	0	
72	72	0	0	
73	73	0	0	
74	74	0	0	
75	75	0	0	
76	76	0	0	
77	77	0	0	
78	78	0	0	
79	79	0	0	
80	80	0	0	
81	81	0	0	
82	82	0	0	
83	83	0	0	
84	84	0	0	
85	85	0	0	
86	86	0	0	
87	87	0	0	
88	88	0	0	
89	89	0	0	
90	90	0	0	
91	91	0	0	
92	92	0	0	
93	93	0	0	
94	94	0	0	
95	95	0	0	
96	96	0	0	
97	97	0	0	
98	98	0	0	
99	99	0	0	
100	100	0	0	
101	101	0	0	
102	102	0	0	
103	103	0	0	
104	104	0	0	
105	105	0	0	
106	106	0	0	
107	107	0	0	
108	108	0	0	
109	109	0	0	
110	110	0	0	
111	111	0	0	
112	112	0	0	
113	113	0	0	
114	114	0	0	
115	115	0	0	
116	116	0	0	
117	117	0	0	
118	118	0	0	
119	119	0	0	
120	120	0	0	
121	121	0	0	
122	122	0	0	
123	123	0	0	
124	124	0	0	
125	125	0	0	
126	126	0	0	
127	127	0	0	
128	128	0	0	
129	129	0	0	
130	130	0	0	
131	131	0	0	
132	132	0	0	
133	133	0	0	
134	134	0	0	
135	135	0	0	
136	136	0	0	
137	137	0	0	
138	138	0	0	
139	139	0	0	
140	140	0	0	
141	141	0	0	
142	142	0	0	
143	143	0	0	
144	144	0	0	
145	145	0	0	
146	146	0	0	
147	147	0	0	
148	148	0	0	
149	149	0	0	
150	150	0	0	
151	151	0	0	
152	152	0	0	
153	153	0	0	
154	154	0	0	
155	155	0	0	
156	156	0	0	
157	157	0	0	
158	158	0	0	
159	159	0	0	
160	160	0	0	
161	161	0	0	
162	162	0	0	
163	163	0	0	
164	164	0	0	
165	165	0	0	
166	166	0	0	
167	167	0	0	
168	168	0	0	
169	169	0	0	
170	170	0	0	
171	171	0	0	
172	172	0	0	
173	173	0	0	
174	174	0	0	
175	175	0	0	
176	176	0	0	
177	177	0	0	
178	178	0	0	
179	179	0	0	
180	180	0	0	
181	181	0	0	
182	182	0	0	
183	183	0	0	
184	184	0	0	
185	185	0	0	
186	186	0	0	
187	187	0	0	
188	188	0	0	
189	189	0	0	
190	190	0	0	
191	191	0	0	
192	192	0	0	
193	193	0	0	
194	194	0	0	
195	195	0	0	
196	196	0	0	
197	197	0	0	
198	198	0	0	
199	199	0	0	
200	200	0	0	
201	201	0	0	
202	202	0	0	
203	203	0	0	
204	204	0	0	
205	205	0	0	
206	206	0	0	
207	207	0	0	
208	208	0	0	
209	209	0	0	
210	210	0	0	
211	211	0	0	
212	212	0	0	
213	213	0	0	
214	214	0	0	
215	215	0	0	
216	216	0	0	
217	217	0	0	
218	218	0	0	
219	219	0	0	
220	220	0	0	
221	221	0	0	
222	222	0	0	
223	223	0	0	
224	224	0	0	
225	225	0	0	
226	226	0	0	
227	227	0	0	
228	228	0	0	
229	229	0	0	
230	230	0	0	
231	231	0	0	
232	232	0	0	
233	233	0	0	
234	234	0	0	
235	235	0	0	
236	236	0	0	
237	237	0	0	
238	238	0	0	
239	239	0	0	
240	240	0	0	
241	241	0	0	
242	242	0	0	
243	243	0	0	
244	244	0	0	
245	245	0	0	
246	246	0	0	
247	247	0	0	
248	248	0	0	
249	249	0	0	
250	250	0	0	
251	251	0	0	
252	252	0	0	
253	253	0	0	
254	254	0	0	
255	255	0	0	
256	256	0	0	
257	257	0	0	
258	258	0	0	
259	259	0	0	
260	260	0	0	
261	261	0	0	
262	262	0	0	
263	263	0	0	
264	264	0	0	
265	265	0	0	
266	266	0	0	
267	267	0	0	
268	268	0	0	
269	269	0	0	
270	270	0	0	
271	271	0	0	
272	272	0	0	
273	273	0	0	
274	274	0	0	
275	275	0	0	
276	276	0	0	
277	277	0	0	
278	278	0	0	
279	279	0	0	
280	280	0	0	
281	281	0	0	
282	282	0	0	
283	283	0	0	
284	284	0	0	
285	285	0	0	
286	286	0	0	
287	287	0	0	
288	288	0	0	
289	289	0	0	
290	290	0	0	
291	291	0	0	
292	292	0	0	
293	293	0	0	
294	294	0	0	
295	295	0	0	
296	296	0	0	
297	297	0	0	
298	298	0	0	
299	299	0	0	
300	300	0	0	
301	301	0	0	
302	302	0	0	
303	303	0	0	
304	304	0	0	
305	305	0	0	
306	306	0	0	
307	307	0	0	
308	308	0	0	
309	309	0	0	
310	310	0	0	
311	311	0	0	
312	312	0	0	
313	313	0	0	
314	314	0	0	
315	315	0	0	
316	316	0	0	
317	317	0	0	
318	318	0	0	
319	319	0	0	
320	320	0	0	
321	321	0	0	
322	322	0	0	
323	323	0	0	
324	324	0	0	
325	325	0	0	
326	326	0	0	
327	327	0	0	
328	328	0	0	
329	329	0	0	
330	330	0	0	
331	331	0	0	
332	332	0	0	
333	333	0	0	
334	334	0	0	
335	335	0	0	
336	336	0	0	
337	337	0	0	
338	338	0	0	
339	339	0	0	
340	340	0	0	
341	341	0	0	
342	342	0	0	
343	343	0	0	
344	344	14	14	
345	345	2	2	
346	346	-23	-23	
347	347	20	20	
348	348	54	54	
349	349	-56	-56	
350	350	-98	-98	
351	351	304	304	
352	352	994	994	
353	353	1395	1395	
354	354	1353	1353	
355	355	1243	1243	
356	356	1278	1278	
357	357	1293	1293	
358	358	1292	1292	
359	359	1329	1329	
360	360	1258	1258	
361	361	1190	1190	
362	362	1410	1410	
363	363	1493	1493	
364	364	690	690	
365	365	-663	-663	
366	366	-1489	-1489	
367	367	-1455	-1455	
368	368	-1150	-1150	
369	369	-1150	-1150	
370	370	-1455	-1455	
371	371	-1489	-1489	
372	372	-663	-663	
373	373	663	663	
374	374	1489	1489	
375	375	1455	1455	
376	376	1150	1150	
377	377	1150	1150	
378	378	1455	1455	
379	379	1489	1489	
380	380	663	663	
381	381	-663	-663	
382	382	-1489	-1489	
383	383	-1455	-1455	
384	384	-1150	-1150	
385	385	-1150	-1150	
386	386	-1455	-1455	
387	387	-1489	-1489	
388	388	-663	-663	
389	389	663	663	
390	390	1489	1489	
391	391	1455	1455	
392	392	1150	1150	
393	393	1150	1150	
394	394	1455	1455	
395	395	1489	1489	
396	396	663	663	
397	397	-663	-663	
398	398	-1489	-1489	
399	399	-1455	-1455	
400	400	-1150	-1150	
401	401	-1150	-1150	
402	402	-1455	-1455	
403	403	-1489	-1489	
404	404	-663	-663	
405	405	663	663	
406	406	1489	1489	
407	407	1455	1455	
408	408	1150	1150	
409	409	1150	1150	
410	410	1455	1455	
411	411	1489	1489	
412	412	663	663	
413	413	-663	-663	
414	414	-1489	-1489	
415	415	-1455	-1455	
416	416	-1150	-1150	
417	417	-1150	-1150	
418	418	-1455	-1455	
419	419	-1489	-1489	
420	420	-663	-663	
421	421	663	663	
422	422	1489	1489	
423	423	1455	1455	
424	424	1150	1150	
425	425	1150	1150	
426	426	1455	1455	
427	427	1489	1489	
428	428	663	663	
429	429	-663	-663	
430	430	-1489	-1489	
431	431	-1455	-1455	
432	432	-1150	-1150	
433	433	-1150	-1150	
434	434	-1455	-1455	
435	435	-1489	-1489	
436	436	-663	-663	
437	437	663	663	
438	438	1489	1489	
439	439	1455	1455	
440	440	1150	1150	
441	441	1150	1150	
442	442	1455	1455	
443	443	1489	1489	
444	444	663	663	
445	445	-663	-663	
446	446	-1489	-1489	
447	447	-1455	-1455	
448	448	-1150	-1150	
449	449	-1150	-1150	
450	450	-1455	-1455	
451	451	-1489	-1489	
452	452	-663	-663	
453	453	663	663	
454	454	1489	1489	
455	455	1455	1455	
456	456	1150	1150	
457	457	1150	1150	
458	458	1455	1455	
459	459	1489	1489	
460	460	663	663	
461	461	-663	-663	
462	462	-1489	-1489	
463	463	-1455	-1455	
464	464	-1150	-1150	
465	465	-1150	-1150	
466	466	-1455	-1455	
467	467	-1489	-1489	
468	468	-663	-663	
469	469	663	663	
470	470	1489	1489	
471	471	1455	1455	
472	472	1150	1150	
473	473	1150	1150	
474	474	1455	1455	
475	475	1489	1489	
476	476	663	663	
477	477	-663	-663	
478	478	-1489	-1489	
479	479	-1455	-1455	
480	480	-1150	-1150	
481	481	-1150	-1150	
482	482	-1455	-1455	
483	483	-1489	-1489	
484	484	-663	-663	
485	485	663	663	
486	486	1489	1489	
487	487	1455	1455	
488	488	1150	1150	
489	489	1150	1150	
490	490	1455	1455	
491	491	1489	1489	
492	492	663	663	
493	493	-663	-663	
494	494	-1489	-1489	
495	495	-1455	-1455	
496	496	-1150	-1150	
497	497	-1150	-1150	
498	498	-1455	-1455	
499	499	-1489	-1489	
500	500	-663	-663	
501	501	663	663	
502	502	1489	1489	
503	503	1455	1455	
504	504	1150	1150	
505	505	1150	1150	
506	506	1455	1455	
507	507	1489	1489	
508	508	663	663	
509	509	-663	-663	
510	510	-1489	-1489	
511	511	-1455	-1455	
512	512	-1150	-1150	
513	513	-1150	-1150	
514	514	-1455	-1455	
515	515	-1489	-1489	
516	516	-663	-663	
517	517	663	663	
518	518	1489	1489	
519	519	1455	1455	
520	520	1150	1150	
521	521	1150	1150	
522	522	1455	1455	
523	523	1489	1489	
524	524	663	663	
525	525	-663	-663	
526	526	-1489	-1489	
527	527	-1455	-1455	
528	528	-1150	-1150	
529	529	-1150	-1150	
530	530	-1455	-1455	
531	531	-1489	-1489	
532	532	-663	-663	
533	533	663	663	
534	534	1489	1489	
535	535	1455	1455	
536	536	1150	1150	
537	537	1150	1150	
538	538	1455	1455	
539	539	1489	1489	
540	540	663	663	
541	541	-663	-663	
542	542	-1489	-1489	
543	543	-1455	-1455	
544	544	-1150	-1150	
545	545	-1150	-1150	
546	546	-1455	-1455	
547	547	-1489	-1489	
548	548	-663	-663	
549	549	690	663	
550	550	1493	1489	
551	551	1410	1455	
552	552	1190	1150	
553	553	1258	1150	
554	554	1342	1455	
555	555	1294	1489	
556	556	1270	663	
557	557	1270	-663	
558	558	1294	-1489	
559	559	1342	-1455	
560	560	1258	-1150	
561	561	1190	-1150	
562	562	1410	-1455	
563	563	1493	-1489	
564	564	690	-663	
565	565	-690	690	
566	566	-1493	1493	
567	567	-1410	1410	
568	568	-1190	1190	
569	569	-1258	1258	
570	570	-1342	1342	
571	571	-1294	1294	
572	572	-1270	1270	
573	573	-1270	1297	
574	574	-1294	1297	
575	575	-1342	1297	
576	576	-1258	1297	
577	577	-1190	1297	
578	578	-1410	1297	
579	579	-1493	1297	
580	580	-690	1297	
581	581	690	1270	
582	582	1493	1294	
583	583	1410	1342	
584	584	1190	1258	
585	585	1258	1190	
586	586	1342	1410	
587	587	1294	1493	
588	588	1270	690	
589	589	1270	-690	
590	590	1294	-1493	
591	591	1342	-1410	
592	592	1258	-1190	
593	593	1190	-1258	
594	594	1410	-1342	
595	595	1493	-1294	
596	596	690	-1270	
597	597	-690	-1297	
598	598	-1493	-1297	
599	599	-1410	-1297	
600	600	-1190	-1297	
601	601	-1258	-1297	
602	602	-1342	-1297	
603	603	-1294	-1297	
604	604	-1270	-1297	
605	605	-1270	-1297	
606	606	-1294	-1297	
607	607	-1342	-1297	
608	608	-1258	-1297	
609	609	-1190	-1297	
610	610	-1410	-1297	
611	611	-1493	-1297	
612	612	-690	-1297	
613	613	663	-1270	
614	614	1489	-1294	
615	615	1455	-1342	
616	616	1150	-1258	
617	617	1150	-1190	
618	618	1455	-1410	
619	619	1489	-1493	
620	620	663	-690	
621	621	-690	690	
622	622	-1493	1493	
623	623	-1410	1410	
624	624	-1190	1190	
625	625	-1258	1258	
626	626	-1342	1342	
627	627	-1294	1294	
628	628	-1270	1270	
629	629	-1297	1270	
630	630	-1297	1294	
631	631	-1297	1342	
632	632	-1297	1258	
633	633	-1297	1190	
634	634	-1297	1410	
635	635	-1297	1493	
636	636	-1297	690	
637	637	-1297	-663	
638	638	-1297	-1489	
639	639	-1297	-1455	
640	640	-1297	-1150	
641	641	-1297	-1150	
642	642	-1297	-1455	
643	643	-1297	-1489	
644	644	-1297	-663	
645	645	-1270	690	
646	646	-1294	1493	
647	647	-1342	1410	
648	648	-1258	1190	
649	649	-1190	1258	
650	650	-1410	1342	
651	651	-1493	1294	
652	652	-690	1270	
653	653	663	1270	
654	654	1489	1294	
655	655	1455	1342	
656	656	1150	1258	
657	657	1150	1190	
658	658	1455	1410	
659	659	1489	1493	
660	660	663	690	
661	661	-663	-690	
662	662	-1489	-1493	
663	663	-1455	-1410	
664	664	-1150	-1190	
665	665	-1150	-1258	
666	666	-1455	-1342	
667	667	-1489	-1294	
668	668	-663	-1270	
669	669	690	-1297	
670	670	1493	-1297	
671	671	1410	-1297	
672	672	1190	-1297	
673	673	1258	-1297	
674	674	1342	-1297	
675	675	1294	-1297	
676	676	1270	-1297	
677	677	1270	-1270	
678	678	1294	-1294	
679	679	1342	-1342	
680	680	1258	-1258	
681	681	1190	-1190	
682	682	1410	-1410	
683	683	1493	-1493	
684	684	690	-690	
685	685	-690	663	
686	686	-1493	1489	
687	687	-1410	1455	
688	688	-1190	1150	
689	689	-1258	1150	
690	690	-1342	1455	
691	691	-1294	1489	
692	692	-1270	663	
693	693	-1270	-690	
694	694	-1294	-1493	
695	695	-1342	-1410	
696	696	-1258	-1190	
697	697	-1190	-1258	
698	698	-1410	-1342	
699	699	-1493	-1294	
700	700	-690	-1270	
701	701	690	-1270	
702	702	1493	-1294	
703	703	1410	-1342	
704	704	1190	-1258	
705	705	1258	-1190	
706	706	1342	-1410	
707	707	1294	-1493	
708	708	1270	-690	
709	709	1297	690	
710	710	1297	1493	
711	711	1297	1410	
712	712	1297	1190	
713	713	1297	1258	
714	714	1297	1342	
715	715	1297	1294	
716	716	1297	1270	
717	717	1270	1297	
718	718	1294	1297	
719	719	1342	1297	
720	720	1258	1297	
721	721	1190	1297	
722	722	1410	1297	
723	723	1493	1297	
724	724	690	1297	
725	725	-663	1270	
726	726	-1489	1294	
727	727	-1455	1342	
728	728	-1150	1258	
729	729	-1150	1190	
730	730	-1455	1410	
731	731	-1489	1493	
732	732	-663	690	
733	733	690	-690	
734	734	1493	-1493	
735	735	1410	-1410	
736	736	1190	-1190	
737	737	1258	-1258	
738	738	1342	-1342	
739	739	1294	-1294	
740	740	1270	-1270	
741	741	1297	-1270	
742	742	1297	-1294	
743	743	1297	-1342	
744	744	1297	-1258	
745	745	1297	-1190	
746	746	1297	-1410	
747	747	1297	-1493	
748	748	1297	-690	
749	749	1270	690	
750	750	1294	1493	
751	751	1342	1410	
752	752	1258	1190	
753	753	1190	1258	
754	754	1410	1342	
755	755	1493	1294	
756	756	690	1270	
757	757	-663	1297	
758	758	-1489	1297	
759	759	-1455	1297	
760	760	-1150	1297	
761	761	-1150	1297	
762	762	-1455	1297	
763	763	-1489	1297	
764	764	-663	1297	
765	765	663	1270	
766	766	1489	1294	
767	767	1455	1342	
768	768	1150	1258	
769	769	1150	1190	
770	770	1455	1410	
771	771	1489	1493	
772	772	663	690	
773	773	-663	-690	
774	774	-1489	-1493	
775	775	-1455	-1410	
776	776	-1150	-1190	
777	777	-1150	-1258	
778	778	-1455	-1342	
779	779	-1489	-1294	
780	780	-663	-1270	
781	781	690	-1297	
782	782	1493	-1297	
783	783	1410	-1297	
784	784	1190	-1297	
785	785	1258	-1297	
786	786	1342	-1297	
787	787	1294	-1297	
788	788	1270	-1297	
789	789	1297	-1297	
790	790	1297	-1297	
791	791	1297	-1297	
792	792	1297	-1297	
793	793	1297	-1297	
794	794	1297	-1297	
795	795	1297	-1297	
796	796	1297	-1297	
797	797	1270	-1297	
798	798	1294	-1297	
799	799	1342	-1297	
800	800	1258	-1297	
801	801	1190	-1297	
802	802	1410	-1297	
803	803	1493	-1297	
804	804	690	-1297	
805	805	-663	-1297	
806	806	-1489	-1297	
807	807	-1455	-1297	
808	808	-1150	-1297	
809	809	-1150	-1297	
810	810	-1455	-1297	
811	811	-1489	-1297	
812	812	-663	-1297	
813	813	690	-1270	
814	814	1493	-1294	
815	815	1410	-1342	
816	816	1190	-1258	
817	817	1258	-1190	
818	818	1342	-1410	
819	819	1294	-1493	
820	820	1270	-690	
821	821	1297	690	
822	822	1297	1493	
823	823	1297	1410	
824	824	1297	1190	
825	825	1297	1258	
826	826	1297	1342	
827	827	1297	1294	
828	828	1297	1270	
829	829	1297	1270	
830	830	1297	1294	
831	831	1297	1342	
832	832	1297	1258	
833	833	1297	1190	
834	834	1297	1410	
835	835	1297	1493	
836	836	1297	690	
837	837	1270	-663	
838	838	1294	-1489	
839	839	1342	-1455	
840	840	1258	-1150	
841	841	1190	-1150	
842	842	1410	-1455	
843	843	1493	-1489	
844	844	690	-663	
845	845	-663	663	
846	846	-1489	1489	
847	847	-1455	1455	
848	848	-1150	1150	
849	849	-1150	1150	
850	850	-1455	1455	
851	851	-1489	1489	
852	852	-663	663	
853	853	690	-663	
854	854	1493	-1489	
855	855	1410	-1455	
856	856	1190	-1150	
857	857	1258	-1150	
858	858	1342	-1455	
859	859	1294	-1489	
860	860	1270	-663	
861	861	1270	690	
862	862	1294	1493	
863	863	1342	1410	
864	864	1258	1190	
865	865	1190	1258	
866	866	1410	1342	
867	867	1493	1294	
868	868	690	1270	
869	869	-690	1270	
870	870	-1493	1294	
871	871	-1410	1342	
872	872	-1190	1258	
873	873	-1258	1190	
874	874	-1342	1410	
875	875	-1294	1493	
876	876	-1270	690	
877	877	-1297	-690	
878	878	-1297	-1493	
879	879	-1297	-1410	
880	880	-1297	-1190	
881	881	-1297	-1258	
882	882	-1297	-1342	
883	883	-1297	-1294	
884	884	-1297	-1270	
885	885	-1297	-1270	
886	886	-1297	-1294	
887	887	-1297	-1342	
888	888	-1297	-1258	
889	889	-1297	-1190	
890	890	-1297	-1410	
891	891	-1297	-1493	
892	892	-1297	-690	
893	893	-1270	663	
894	894	-1294	1489	
895	895	-1342	1455	
896	896	-1258	1150	
897	897	-1190	1150	
898	898	-1410	1455	
899	899	-1493	1489	
900	900	-690	663	
901	901	690	-690	
902	902	1493	-1493	
903	903	1410	-1410	
904	904	1190	-1190	
905	905	1258	-1258	
906	906	1342	-1342	
907	907	1294	-1294	
908	908	1270	-1270	
909	909	1297	-1270	
910	910	1297	-1294	
911	911	1297	-1342	
912	912	1297	-1258	
913	913	1297	-1190	
914	914	1297	-1410	
915	915	1297	-1493	
916	916	1297	-690	
917	917	1270	690	
918	918	1294	1493	
919	919	1342	1410	
920	920	1258	1190	
921	921	1190	1258	
922	922	1410	1342	
923	923	1493	1294	
924	924	690	1270	
925	925	-690	1270	
926	926	-1493	1294	
927	927	-1410	1342	
928	928	-1190	1258	
929	929	-1258	1190	
930	930	-1342	1410	
931	931	-1294	1493	
932	932	-1270	690	
933	933	-1297	-690	
934	934	-1297	-1493	
935	935	-1297	-1410	
936	936	-1297	-1190	
937	937	-1297	-1258	
938	938	-1297	-1342	
939	939	-1297	-1294	
940	940	-1297	-1270	
941	941	-1270	-1297	
942	942	-1294	-1297	
943	943	-1342	-1297	
944	944	-1258	-1297	
945	945	-1190	-1297	
946	946	-1410	-1297	
947	947	-1493	-1297	
948	948	-690	-1297	
949	949	690	-1297	
950	950	1493	-1297	
951	951	1410	-1297	
952	952	1190	-1297	
953	953	1258	-1297	
954	954	1342	-1297	
955	955	1294	-1297	
956	956	1270	-1297	
957	957	1297	-1297	
958	958	1297	-1297	
959	959	1297	-1297	
960	960	1297	-1297	
961	961	1297	-1297	
962	962	1297	-1297	
963	963	1297	-1297	
964	964	1297	-1297	
965	965	1297	-1270	
966	966	1297	-1294	
967	967	1297	-1342	
968	968	1297	-1258	
969	969	1297	-1190	
970	970	1297	-1410	
971	971	1297	-1493	
972	972	1297	-690	
973	973	1270	690	
974	974	1294	1493	
975	975	1342	1410	
976	976	1258	1190	
977	977	1190	1258	
978	978	1410	1342	
979	979	1493	1294	
980	980	690	1270	
981	981	-663	1297	
982	982	-1489	1297	
983	983	-1455	1297	
984	984	-1150	1297	
985	985	-1150	1297	
986	986	-1455	1297	
987	987	-1489	1297	
988	988	-663	1297	
989	989	690	1297	
990	990	1493	1297	
991	991	1410	1297	
992	992	1190	1297	
993	993	1258	1297	
994	994	1342	1297	
995	995	1294	1297	
996	996	1270	1297	
997	997	1297	1270	
998	998	1297	1294	
999	999	1297	1342	
1000	1000	1297	1258	
1001	1001	1297	1190	
1002	1002	1297	1410	
1003	1003	1297	1493	
1004	1004	1297	690	
1005	1005	1297	-690	
1006	1006	1297	-1493	
1007	1007	1297	-1410	
1008	1008	1297	-1190	
1009	1009	1297	-1258	
1010	1010	1297	-1342	
1011	1011	1297	-1294	
1012	1012	1297	-1270	
1013	1013	1297	-1297	
1014	1014	1297	-1297	
1015	1015	1297	-1297	
1016	1016	1297	-1297	
1017	1017	1297	-1297	
1018	1018	1297	-1297	
1019	1019	1297	-1297	
1020	1020	1297	-1297	
1021	1021	1270	-1297	
1022	1022	1294	-1297	
1023	1023	1342	-1297	
1024	1024	1258	-1297	
1025	1025	1190	-1297	
1026	1026	1410	-1297	
1027	1027	1493	-1297	
1028	1028	690	-1297	
1029	1029	-690	-1270	
1030	1030	-1493	-1294	
1031	1031	-1410	-1342	
1032	1032	-1190	-1258	
1033	1033	-1258	-1190	
1034	1034	-1342	-1410	
1035	1035	-1294	-1493	
1036	1036	-1270	-690	
1037	1037	-1297	663	
1038	1038	-1297	1489	
1039	1039	-1297	1455	
1040	1040	-1297	1150	
1041	1041	-1297	1150	
1042	1042	-1297	1455	
1043	1043	-1297	1489	
1044	1044	-1297	663	
1045	1045	-1270	-663	
1046	1046	-1294	-1489	
1047	1047	-1342	-1455	
1048	1048	-1258	-1150	
1049	1049	-1190	-1150	
1050	1050	-1410	-1455	
1051	1051	-1493	-1489	
1052	1052	-690	-663	
1053	1053	690	663	
1054	1054	1493	1489	
1055	1055	1410	1455	
1056	1056	1190	1150	
1057	1057	1258	1150	
1058	1058	1342	1455	
1059	1059	1294	1489	
1060	1060	1270	663	
1061	1061	1270	-690	
1062	1062	1294	-1493	
1063	1063	1342	-1410	
1064	1064	1258	-1190	
1065	1065	1190	-1258	
1066	1066	1410	-1342	
1067	1067	1493	-1294	
1068	1068	690	-1270	
1069	1069	-663	-1270	
1070	1070	-1489	-1294	
1071	1071	-1455	-1342	
1072	1072	-1150	-1258	
1073	1073	-1150	-1190	
1074	1074	-1455	-1410	
1075	1075	-1489	-1493	
1076	1076	-663	-690	
1077	1077	663	663	
1078	1078	1489	1489	
1079	1079	1455	1455	
1080	1080	1150	1150	
1081	1081	1150	1150	
1082	1082	1455	1455	
1083	1083	1489	1489	
1084	1084	663	663	
1085	1085	-690	-690	
1086	1086	-1493	-1493	
1087	1087	-1410	-1410	
1088	1088	-1190	-1190	
1089	1089	-1258	-1258	
1090	1090	-1342	-1342	
1091	1091	-1294	-1294	
1092	1092	-1270	-1270	
1093	1093	-1297	-1297	
1094	1094	-1297	-1297	
1095	1095	-1297	-1297	
1096	1096	-1297	-1297	
1097	1097	-1297	-1297	
1098	1098	-1297	-1297	
1099	1099	-1297	-1297	
1100	1100	-1297	-1297	
1101	1101	-1297	-1297	
1102	1102	-1297	-1297	
1103	1103	-1297	-1297	
1104	1104	-1297	-1297	
1105	1105	-1297	-1297	
1106	1106	-1297	-1297	
1107	1107	-1297	-1297	
1108	1108	-1297	-1297	
1109	1109	-1297	-1297	
1110	1110	-1297	-1297	
1111	1111	-1297	-1297	
1112	1112	-1297	-1297	
1113	1113	-1297	-1297	
1114	1114	-1297	-1297	
1115	1115	-1297	-1297	
1116	1116	-1297	-1297	
1117	1117	-1297	-1297	
1118	1118	-1297	-1297	
1119	1119	-1297	-1297	
1120	1120	-1297	-1297	
1121	1121	-1297	-1297	
1122	1122	-1297	-1297	
1123	1123	-1297	-1297	
1124	1124	-1297	-1297	
1125	1125	-1297	-1297	
1126	1126	-1297	-1297	
1127	1127	-1297	-1297	
